Time [s],Packet ID,MOSI,MISO
2.567259000000000,0,0x50,0xFF
2.567286333333333,0,0x0D,0xFF
2.567313583333333,0,0xF7,0xFF
2.567340875000000,0,0x01,0xFF
2.567368166666667,0,0x80,0xFF
2.567395416666667,0,0x00,0xFF
2.567422708333333,0,0x00,0xFF
2.567450000000000,0,0x00,0xFF
2.567477291666667,0,0x00,0xFF
2.567504583333333,0,0x00,0xFF
2.567531875000000,0,0x00,0xFF
2.567559166666667,0,0x00,0xFF
2.567586458333333,0,0x00,0xFF
2.567613750000000,0,0x00,0xFF
2.567641041666667,0,0x00,0xFF
2.961323416666667,1,0xF3,0xFF
3.301789291666667,2,0x17,0xFF
3.301816583333333,2,0x02,0xFF
3.301854833333334,2,0xFF,0x3A
3.301882416666666,2,0xFF,0x04
3.301909833333333,2,0xFF,0x00
3.402844333333333,3,0xF3,0xFF
3.768626458333333,4,0x17,0xFF
3.768653750000000,4,0x02,0xFF
3.768691875000000,4,0xFF,0x84
3.768719333333333,4,0xFF,0x03
3.768746791666667,4,0xFF,0x00
3.869671833333333,5,0xF3,0xFF
4.235503625000000,6,0x17,0xFF
4.235530916666667,6,0x02,0xFF
4.235569000000000,6,0xFF,0x78
4.235596541666666,6,0xFF,0x03
4.235624000000000,6,0xFF,0x00
4.336557625000000,7,0xF3,0xFF
4.701337291666666,8,0x17,0xFF
4.701364583333334,8,0x02,0xFF
4.701402708333333,8,0xFF,0xB9
4.701430291666667,8,0xFF,0x03
4.701457791666667,8,0xFF,0x00
4.802380708333334,9,0xF3,0xFF
5.168141166666667,10,0x17,0xFF
5.168168458333334,10,0x02,0xFF
5.168206541666667,10,0xFF,0x00
5.168233916666667,10,0xFF,0x04
5.168261333333334,10,0xFF,0x00
5.269179250000000,11,0xF3,0xFF
5.634871208333333,12,0x17,0xFF
5.634898541666667,12,0x02,0xFF
5.634936625000000,12,0xFF,0x16
5.634964125000000,12,0xFF,0x04
5.634991583333333,12,0xFF,0x00
5.735911291666667,13,0xF3,0xFF
6.101596666666667,14,0x17,0xFF
6.101623958333334,14,0x02,0xFF
6.101662000000000,14,0xFF,0xFD
6.101689666666666,14,0xFF,0x04
6.101717083333333,14,0xFF,0x00
6.202589666666666,15,0xF3,0xFF
6.568127166666667,16,0x17,0xFF
6.568154416666666,16,0x02,0xFF
6.568192500000000,16,0xFF,0xAF
6.568220125000000,16,0xFF,0x04
6.568247541666667,16,0xFF,0x00
6.669096250000000,17,0xF3,0xFF
7.035692791666667,18,0x17,0xFF
7.035720083333334,18,0x02,0xFF
7.035758208333333,18,0xFF,0x74
7.035785750000000,18,0xFF,0x04
7.035813208333333,18,0xFF,0x00
7.136719666666667,19,0xF3,0xFF
7.502390291666667,20,0x17,0xFF
7.502417583333333,20,0x02,0xFF
7.502455666666667,20,0xFF,0xFD
7.502483375000000,20,0xFF,0x03
7.502510833333333,20,0xFF,0x00
7.603421625000000,21,0xF3,0xFF
7.968229000000000,22,0x17,0xFF
7.968256333333334,22,0x02,0xFF
7.968294416666667,22,0xFF,0x04
7.968321875000000,22,0xFF,0x03
7.968349333333333,22,0xFF,0x00
8.069265083333333,23,0xF3,0xFF
8.435059750000001,24,0x17,0xFF
8.435087083333332,24,0x02,0xFF
8.435125166666667,24,0xFF,0x44
8.435152625000001,24,0xFF,0x03
8.435180125000000,24,0xFF,0x00
8.536099000000000,25,0xF3,0xFF
8.901908333333333,26,0x17,0xFF
8.901935666666667,26,0x02,0xFF
8.901973750000000,26,0xFF,0x0B
8.902001250000000,26,0xFF,0x03
8.902028708333333,26,0xFF,0x00
9.002960416666667,27,0xF3,0xFF
9.368724958333333,28,0x17,0xFF
9.368752291666667,28,0x02,0xFF
9.368790375000000,28,0xFF,0x84
9.368817833333333,28,0xFF,0x02
9.368845250000000,28,0xFF,0x00
9.469763458333333,29,0xF3,0xFF
9.835587916666666,30,0x17,0xFF
9.835615208333333,30,0x02,0xFF
9.835653333333333,30,0xFF,0xFF
9.835681041666666,30,0xFF,0x03
9.835708500000001,30,0xFF,0x00
9.936639791666666,31,0xF3,0xFF
10.302386291666666,32,0x17,0xFF
10.302413583333333,32,0x02,0xFF
10.302451666666666,32,0xFF,0xA2
10.302479166666666,32,0xFF,0x03
10.302506624999999,32,0xFF,0x00
10.403380333333333,33,0xF3,0xFF
10.769063458333333,34,0x17,0xFF
10.769090791666667,34,0x02,0xFF
10.769128916666666,34,0xFF,0x8D
10.769156458333333,34,0xFF,0x04
10.769183916666666,34,0xFF,0x00
10.870106208333333,35,0xF3,0xFF
11.235860875000000,36,0x17,0xFF
11.235888208333334,36,0x02,0xFF
11.235926333333333,36,0xFF,0x1C
11.235953833333333,36,0xFF,0x03
11.235981291666667,36,0xFF,0x00
11.336917375000001,37,0xF3,0xFF
11.702561291666667,38,0x17,0xFF
11.702588583333334,38,0x02,0xFF
11.702626666666667,38,0xFF,0xA4
11.702654166666667,38,0xFF,0x04
11.702681583333334,38,0xFF,0x00
11.803575916666667,39,0xF3,0xFF
12.169303125000001,40,0x17,0xFF
12.169330416666666,40,0x02,0xFF
12.169368499999999,40,0xFF,0x3B
12.169396083333334,40,0xFF,0x03
12.169423541666667,40,0xFF,0x00
12.270337124999999,41,0xF3,0xFF
12.636049083333333,42,0x17,0xFF
12.636076375000000,42,0x02,0xFF
12.636114458333333,42,0xFF,0x44
12.636141916666666,42,0xFF,0x03
12.636169375000000,42,0xFF,0x00
12.737071833333333,43,0xF3,0xFF
13.102758375000001,44,0x17,0xFF
13.102785666666668,44,0x02,0xFF
13.102823750000001,44,0xFF,0x71
13.102851291666667,44,0xFF,0x03
13.102878750000000,44,0xFF,0x00
13.203812916666667,45,0xF3,0xFF
13.569531666666666,46,0x17,0xFF
13.569558958333333,46,0x02,0xFF
13.569597083333333,46,0xFF,0x97
13.569624624999999,46,0xFF,0x05
13.569652124999999,46,0xFF,0x00
13.670537375000000,47,0xF3,0xFF
14.036139583333334,48,0x17,0xFF
14.036166874999999,48,0x02,0xFF
14.036205000000001,48,0xFF,0xCA
14.036232541666667,48,0xFF,0x03
14.036260000000000,48,0xFF,0x00
14.137151291666667,49,0xF3,0xFF
14.502740416666667,50,0x17,0xFF
14.502767708333334,50,0x02,0xFF
14.502805750000000,50,0xFF,0xCA
14.502833291666667,50,0xFF,0x02
14.502860708333333,50,0xFF,0x00
14.603721750000000,51,0xF3,0xFF
14.969350541666667,52,0x17,0xFF
14.969377833333333,52,0x02,0xFF
14.969415916666666,52,0xFF,0xDD
14.969443541666667,52,0xFF,0x02
14.969470958333334,52,0xFF,0x00
15.070344708333334,53,0xF3,0xFF
15.435941750000000,54,0x17,0xFF
15.435969041666667,54,0x02,0xFF
15.436007125000000,54,0xFF,0x4C
15.436034625000000,54,0xFF,0x03
15.436062083333333,54,0xFF,0x00
15.536920541666667,55,0xF3,0xFF
15.902520166666667,56,0x17,0xFF
15.902547458333334,56,0x02,0xFF
15.902585583333334,56,0xFF,0x90
15.902613041666667,56,0xFF,0x02
15.902640458333334,56,0xFF,0x00
16.003551958333333,57,0xF3,0xFF
16.369114666666668,58,0x17,0xFF
16.369141916666667,58,0x02,0xFF
16.369180000000000,58,0xFF,0x2C
16.369207500000002,58,0xFF,0x03
16.369234916666667,58,0xFF,0x00
16.470096208333334,59,0xF3,0xFF
16.835664958333332,60,0x17,0xFF
16.835692250000001,60,0x02,0xFF
16.835730333333334,60,0xFF,0x41
16.835757833333332,60,0xFF,0x02
16.835785250000001,60,0xFF,0x00
16.936632124999999,61,0xF3,0xFF
17.303174916666666,62,0x17,0xFF
17.303202208333332,62,0x02,0xFF
17.303240291666668,62,0xFF,0x43
17.303267791666666,62,0xFF,0x02
17.303295166666668,62,0xFF,0x00
17.404136333333334,63,0xF3,0xFF
17.769704416666666,64,0x17,0xFF
17.769731708333332,64,0x02,0xFF
17.769769791666668,64,0xFF,0xE1
17.769797333333333,64,0xFF,0x02
17.769824750000002,64,0xFF,0x00
17.870689708333334,65,0xF3,0xFF
18.236256458333333,66,0x17,0xFF
18.236283749999998,66,0x02,0xFF
18.236321833333335,66,0xFF,0xD2
18.236349333333333,66,0xFF,0x02
18.236376750000002,66,0xFF,0x00
18.337238875000001,67,0xF3,0xFF
18.702832583333333,68,0x17,0xFF
18.702859875000001,68,0x02,0xFF
18.702897958333335,68,0xFF,0x65
18.702925458333333,68,0xFF,0x02
18.702952875000001,68,0xFF,0x00
18.803788166666667,69,0xF3,0xFF
19.169283750000002,70,0x17,0xFF
19.169311083333334,70,0x02,0xFF
19.169349166666667,70,0xFF,0xC0
19.169376625000002,70,0xFF,0x03
19.169404083333333,70,0xFF,0x00
19.270283124999999,71,0xF3,0xFF
19.635873041666667,72,0x17,0xFF
19.635900333333332,72,0x02,0xFF
19.635938416666665,72,0xFF,0xEE
19.635966041666666,72,0xFF,0x03
19.635993500000001,72,0xFF,0x00
19.736847458333333,73,0xF3,0xFF
20.102522499999999,74,0x17,0xFF
20.102549791666668,74,0x02,0xFF
20.102587916666668,74,0xFF,0x79
20.102615458333332,74,0xFF,0x03
20.102642916666667,74,0xFF,0x00
20.203537958333332,75,0xF3,0xFF
20.569271458333333,76,0x17,0xFF
20.569298791666668,76,0x02,0xFF
20.569336875000001,76,0xFF,0x35
20.569364458333332,76,0xFF,0x04
20.569391875000001,76,0xFF,0x00
20.670347541666668,77,0xF3,0xFF
21.036018583333334,78,0x17,0xFF
21.036045874999999,78,0x02,0xFF
21.036083958333332,78,0xFF,0xF0
21.036111458333334,78,0xFF,0x03
21.036138916666665,78,0xFF,0x00
21.137048499999999,79,0xF3,0xFF
21.502674083333332,80,0x17,0xFF
21.502701375000001,80,0x02,0xFF
21.502739416666667,80,0xFF,0x90
21.502766874999999,80,0xFF,0x04
21.502794291666667,80,0xFF,0x00
21.603650583333334,81,0xF3,0xFF
21.970254208333333,82,0x17,0xFF
21.970281499999999,82,0x02,0xFF
21.970319583333332,82,0xFF,0x2F
21.970347125000000,82,0xFF,0x04
21.970374541666665,82,0xFF,0x00
22.071214874999999,83,0xF3,0xFF
22.436792499999999,84,0x17,0xFF
22.436819791666668,84,0x02,0xFF
22.436857875000001,84,0xFF,0x8F
22.436885458333332,84,0xFF,0x04
22.436912875000001,84,0xFF,0x00
22.537779083333334,85,0xF3,0xFF
22.903421125000001,86,0x17,0xFF
22.903448375000000,86,0x02,0xFF
22.903486458333333,86,0xFF,0x2C
22.903513916666668,86,0xFF,0x04
22.903541333333333,86,0xFF,0x00
23.004406208333332,87,0xF3,0xFF
23.370076833333332,88,0x17,0xFF
23.370104083333334,88,0x02,0xFF
23.370142166666668,88,0xFF,0x69
23.370169708333332,88,0xFF,0x03
23.370197166666667,88,0xFF,0x00
23.471075791666667,89,0xF3,0xFF
23.836624458333333,90,0x17,0xFF
23.836651708333335,90,0x02,0xFF
23.836689791666668,90,0xFF,0xDF
23.836717416666666,90,0xFF,0x03
23.836744875000001,90,0xFF,0x00
23.937577000000001,91,0xF3,0xFF
24.302961583333332,92,0x17,0xFF
24.302988875000000,92,0x02,0xFF
24.303026916666667,92,0xFF,0x9E
24.303054499999998,92,0xFF,0x04
24.303081875000000,92,0xFF,0x00
24.403882791666668,93,0xF3,0xFF
24.770400208333335,94,0x17,0xFF
24.770427500000000,94,0x02,0xFF
24.770465583333333,94,0xFF,0x7D
24.770493166666668,94,0xFF,0x03
24.770520625000000,94,0xFF,0x00
24.871362749999999,95,0xF3,0xFF
25.236891666666665,96,0x17,0xFF
25.236918958333334,96,0x02,0xFF
25.236957041666667,96,0xFF,0xEC
25.236984583333335,96,0xFF,0x03
25.237012041666667,96,0xFF,0x00
25.337897750000000,97,0xF3,0xFF
25.703499833333332,98,0x17,0xFF
25.703527083333334,98,0x02,0xFF
25.703565166666667,98,0xFF,0xE0
25.703592666666665,98,0xFF,0x03
25.703620125000000,98,0xFF,0x00
25.804490250000001,99,0xF3,0xFF
26.170090875000000,100,0x17,0xFF
26.170118166666665,100,0x02,0xFF
26.170156208333335,100,0xFF,0xF8
26.170183791666666,100,0xFF,0x03
26.170211250000001,100,0xFF,0x00
26.271073833333332,101,0xF3,0xFF
26.636571833333335,102,0x17,0xFF
26.636599083333333,102,0x02,0xFF
26.636637125000000,102,0xFF,0xF6
26.636664750000001,102,0xFF,0x02
26.636692125000000,102,0xFF,0x00
26.737528333333334,103,0xF3,0xFF
27.103985208333334,104,0x17,0xFF
27.104012500000000,104,0x02,0xFF
27.104050583333333,104,0xFF,0x06
27.104078000000001,104,0xFF,0x03
27.104105458333333,104,0xFF,0x00
27.204999333333333,105,0xF3,0xFF
27.570446708333332,106,0x17,0xFF
27.570474000000001,106,0x02,0xFF
27.570512083333334,106,0xFF,0xF0
27.570539583333332,106,0xFF,0x02
27.570567000000000,106,0xFF,0x00
27.671407125000002,107,0xF3,0xFF
28.036821791666668,108,0x17,0xFF
28.036849083333333,108,0x02,0xFF
28.036887125000000,108,0xFF,0x77
28.036914708333335,108,0xFF,0x02
28.036942124999999,108,0xFF,0x00
28.137791833333335,109,0xF3,0xFF
28.503295416666667,110,0x17,0xFF
28.503322708333332,110,0x02,0xFF
28.503360833333332,110,0xFF,0x62
28.503388333333334,110,0xFF,0x02
28.503415749999998,110,0xFF,0x00
28.604312000000000,111,0xF3,0xFF
28.969923583333333,112,0x17,0xFF
28.969950874999999,112,0x02,0xFF
28.969988958333332,112,0xFF,0xF6
28.970016583333333,112,0xFF,0x03
28.970044041666668,112,0xFF,0x00
29.070934958333332,113,0xF3,0xFF
29.436774124999999,114,0x17,0xFF
29.436801416666668,114,0x02,0xFF
29.436839541666668,114,0xFF,0x80
29.436866958333333,114,0xFF,0x02
29.436894416666668,114,0xFF,0x00
29.537810624999999,115,0xF3,0xFF
29.903533750000001,116,0x17,0xFF
29.903561041666666,116,0x02,0xFF
29.903599083333333,116,0xFF,0xBC
29.903626666666668,116,0xFF,0x02
29.903654041666666,116,0xFF,0x00
30.004526041666665,117,0xF3,0xFF
30.370155874999998,118,0x17,0xFF
30.370183166666667,118,0x02,0xFF
30.370221250000000,118,0xFF,0x08
30.370248624999999,118,0xFF,0x04
30.370276041666667,118,0xFF,0x00
30.471172916666667,119,0xF3,0xFF
30.836750041666665,120,0x17,0xFF
30.836777333333334,120,0x02,0xFF
30.836815416666667,120,0xFF,0x6B
30.836842958333332,120,0xFF,0x04
30.836870416666667,120,0xFF,0x00
30.937766000000000,121,0xF3,0xFF
31.303467333333334,122,0x17,0xFF
31.303494624999999,122,0x02,0xFF
31.303532708333332,122,0xFF,0x2D
31.303560208333334,122,0xFF,0x04
31.303587624999999,122,0xFF,0x00
31.404461625000000,123,0xF3,0xFF
31.770051375000001,124,0x17,0xFF
31.770078666666667,124,0x02,0xFF
31.770116750000000,124,0xFF,0xDF
31.770144416666668,124,0xFF,0x03
31.770171833333333,124,0xFF,0x00
31.870992666666666,125,0xF3,0xFF
32.237483041666664,126,0x17,0xFF
32.237510333333333,126,0x02,0xFF
32.237548416666669,126,0xFF,0x31
32.237575874999997,126,0xFF,0x04
32.237603291666666,126,0xFF,0x00
32.338476624999998,127,0xF3,0xFF
32.704127291666666,128,0x17,0xFF
32.704154583333334,128,0x02,0xFF
32.704192666666664,128,0xFF,0xE1
32.704220208333332,128,0xFF,0x05
32.704247666666667,128,0xFF,0x00
32.805137791666667,129,0xF3,0xFF
33.170949458333332,130,0x17,0xFF
33.170976791666668,130,0x02,0xFF
33.171014916666664,130,0xFF,0x31
33.171042416666666,130,0xFF,0x03
33.171069875000001,130,0xFF,0x00
33.271995416666670,131,0xF3,0xFF
33.637802000000001,132,0x17,0xFF
33.637829291666669,132,0x02,0xFF
33.637867416666666,132,0xFF,0xA9
33.637895000000000,132,0xFF,0x02
33.637922416666669,132,0xFF,0x00
33.738875416666666,133,0xF3,0xFF
34.103662333333332,134,0x17,0xFF
34.103689625000001,134,0x02,0xFF
34.103727749999997,134,0xFF,0x66
34.103755291666666,134,0xFF,0x03
34.103782750000001,134,0xFF,0x00
34.204717875000000,135,0xF3,0xFF
34.570509625000000,136,0x17,0xFF
34.570536958333335,136,0x02,0xFF
34.570575041666665,136,0xFF,0x02
34.570602500000000,136,0xFF,0x03
34.570629958333335,136,0xFF,0x00
34.671577333333332,137,0xF3,0xFF
35.037374499999999,138,0x17,0xFF
35.037401791666667,138,0x02,0xFF
35.037439874999997,138,0xFF,0xD4
35.037467416666665,138,0xFF,0x02
35.037494833333334,138,0xFF,0x00
35.138399249999999,139,0xF3,0xFF
35.504183875000003,140,0x17,0xFF
35.504211166666664,140,0x02,0xFF
35.504249250000001,140,0xFF,0xDA
35.504276833333336,140,0xFF,0x02
35.504304249999997,140,0xFF,0x00
35.605211916666669,141,0xF3,0xFF
35.970944416666669,142,0x17,0xFF
35.970971708333330,142,0x02,0xFF
35.971009833333333,142,0xFF,0xBB
35.971037416666668,142,0xFF,0x02
35.971064833333337,142,0xFF,0x00
36.071989791666667,143,0xF3,0xFF
36.437834916666667,144,0x17,0xFF
36.437862208333335,144,0x02,0xFF
36.437900333333332,144,0xFF,0x9E
36.437927916666666,144,0xFF,0x03
36.437955375000001,144,0xFF,0x00
36.538902458333332,145,0xF3,0xFF
36.904823958333331,146,0x17,0xFF
36.904851250000000,146,0x02,0xFF
36.904889333333337,146,0xFF,0x95
36.904916874999998,146,0xFF,0x03
36.904944333333333,146,0xFF,0x00
37.005862791666665,147,0xF3,0xFF
37.370598874999999,148,0x17,0xFF
37.370626208333334,148,0x02,0xFF
37.370664291666664,148,0xFF,0x54
37.370691791666665,148,0xFF,0x02
37.370719208333334,148,0xFF,0x00
37.471617458333334,149,0xF3,0xFF
37.837275416666664,150,0x17,0xFF
37.837302708333333,150,0x02,0xFF
37.837340833333336,150,0xFF,0x56
37.837368374999997,150,0xFF,0x02
37.837395833333332,150,0xFF,0x00
37.938314833333337,151,0xF3,0xFF
38.304086624999997,152,0x17,0xFF
38.304113916666665,152,0x02,0xFF
38.304152000000002,152,0xFF,0x91
38.304179499999996,152,0xFF,0x02
38.304206916666665,152,0xFF,0x00
38.405128041666664,153,0xF3,0xFF
38.770886666666669,154,0x17,0xFF
38.770913958333331,154,0x02,0xFF
38.770952041666668,154,0xFF,0x02
38.770979500000003,154,0xFF,0x04
38.771006916666664,154,0xFF,0x00
38.871942333333337,155,0xF3,0xFF
39.237776375000003,156,0x17,0xFF
39.237803666666665,156,0x02,0xFF
39.237841750000001,156,0xFF,0x75
39.237869333333336,156,0xFF,0x03
39.237896791666664,156,0xFF,0x00
39.338844625000000,157,0xF3,0xFF
39.704692041666668,158,0x17,0xFF
39.704719333333337,158,0x02,0xFF
39.704757416666666,158,0xFF,0x1E
39.704784958333335,158,0xFF,0x03
39.704812416666670,158,0xFF,0x00
39.805749958333337,159,0xF3,0xFF
40.171584791666668,160,0x17,0xFF
40.171612083333336,160,0x02,0xFF
40.171650208333332,160,0xFF,0x7B
40.171677833333334,160,0xFF,0x02
40.171705250000002,160,0xFF,0x00
40.272635000000001,161,0xF3,0xFF
40.638344291666670,162,0x17,0xFF
40.638371583333331,162,0x02,0xFF
40.638409666666668,162,0xFF,0xE8
40.638437208333336,162,0xFF,0x03
40.638464624999997,162,0xFF,0x00
40.739388916666670,163,0xF3,0xFF
41.104294666666668,164,0x17,0xFF
41.104321958333337,164,0x02,0xFF
41.104360083333333,164,0xFF,0xF2
41.104387666666668,164,0xFF,0x04
41.104415083333336,164,0xFF,0x00
41.205356875000000,165,0xF3,0xFF
41.571192125000003,166,0x17,0xFF
41.571219416666665,166,0x02,0xFF
41.571257500000002,166,0xFF,0x3B
41.571285041666670,166,0xFF,0x04
41.571312458333331,166,0xFF,0x00
41.672231166666670,167,0xF3,0xFF
42.037974458333331,168,0x17,0xFF
42.038001791666666,168,0x02,0xFF
42.038039875000003,168,0xFF,0x12
42.038067333333331,168,0xFF,0x04
42.038094749999999,168,0xFF,0x00
42.138987083333333,169,0xF3,0xFF
42.504562208333333,170,0x17,0xFF
42.504589500000002,170,0x02,0xFF
42.504627583333331,170,0xFF,0x6A
42.504655124999999,170,0xFF,0x03
42.504682583333334,170,0xFF,0x00
42.605548208333332,171,0xF3,0xFF
42.971267291666663,172,0x17,0xFF
42.971294583333332,172,0x02,0xFF
42.971332666666669,172,0xFF,0x15
42.971360166666663,172,0xFF,0x03
42.971387624999998,172,0xFF,0x00
43.072275166666664,173,0xF3,0xFF
43.437877208333333,174,0x17,0xFF
43.437904500000002,174,0x02,0xFF
43.437942583333331,174,0xFF,0xC2
43.437970083333333,174,0xFF,0x01
43.437997500000002,174,0xFF,0x00
43.538883749999997,175,0xF3,0xFF
43.904491374999999,176,0x17,0xFF
43.904518666666668,176,0x02,0xFF
43.904556791666664,176,0xFF,0x62
43.904584291666666,176,0xFF,0x03
43.904611750000001,176,0xFF,0x00
44.005523458333336,177,0xF3,0xFF
44.371223375000000,178,0x17,0xFF
44.371250666666668,178,0x02,0xFF
44.371288749999998,178,0xFF,0x2E
44.371316291666666,178,0xFF,0x03
44.371343791666668,178,0xFF,0x00
44.472274708333330,179,0xF3,0xFF
44.838057166666665,180,0x17,0xFF
44.838084458333334,180,0x02,0xFF
44.838122541666664,180,0xFF,0x21
44.838149999999999,180,0xFF,0x04
44.838177375000001,180,0xFF,0x00
44.939066791666669,181,0xF3,0xFF
45.304776500000003,182,0x17,0xFF
45.304803791666664,182,0x02,0xFF
45.304841875000001,182,0xFF,0xB1
45.304869416666669,182,0xFF,0x03
45.304896874999997,182,0xFF,0x00
45.405817583333331,183,0xF3,0xFF
45.771528833333335,184,0x17,0xFF
45.771556124999996,184,0x02,0xFF
45.771594208333333,184,0xFF,0xDD
45.771621833333334,184,0xFF,0x03
45.771649291666670,184,0xFF,0x00
45.872520083333335,185,0xF3,0xFF
46.238125083333337,186,0x17,0xFF
46.238152374999999,186,0x02,0xFF
46.238190458333335,186,0xFF,0xE5
46.238218000000003,186,0xFF,0x03
46.238245458333331,186,0xFF,0x00
46.339058166666668,187,0xF3,0xFF
46.705566249999997,188,0x17,0xFF
46.705593541666666,188,0x02,0xFF
46.705631625000002,188,0xFF,0x74
46.705659166666663,188,0xFF,0x03
46.705686624999998,188,0xFF,0x00
46.806550583333333,189,0xF3,0xFF
47.172158125000003,190,0x17,0xFF
47.172185416666665,190,0x02,0xFF
47.172223500000001,190,0xFF,0xEC
47.172251083333336,190,0xFF,0x03
47.172278541666664,190,0xFF,0x00
47.273153250000000,191,0xF3,0xFF
47.638804000000000,192,0x17,0xFF
47.638831291666669,192,0x02,0xFF
47.638869416666665,192,0xFF,0x5D
47.638897000000000,192,0xFF,0x04
47.638924416666669,192,0xFF,0x00
47.739794916666668,193,0xF3,0xFF
48.105339708333332,194,0x17,0xFF
48.105367000000001,194,0x02,0xFF
48.105405083333331,194,0xFF,0xC7
48.105432624999999,194,0xFF,0x03
48.105460083333334,194,0xFF,0x00
48.206381874999998,195,0xF3,0xFF
48.572001583333332,196,0x17,0xFF
48.572028875000001,196,0x02,0xFF
48.572066958333330,196,0xFF,0x41
48.572094458333332,196,0xFF,0x04
48.572121833333334,196,0xFF,0x00
48.673009541666666,197,0xF3,0xFF
49.038636333333336,198,0x17,0xFF
49.038663624999998,198,0x02,0xFF
49.038701708333335,198,0xFF,0xC3
49.038729250000003,198,0xFF,0x02
49.038756666666664,198,0xFF,0x00
49.139612124999999,199,0xF3,0xFF
49.505273916666667,200,0x17,0xFF
49.505301208333336,200,0x02,0xFF
49.505339291666665,200,0xFF,0xEB
49.505366875000000,200,0xFF,0x02
49.505394291666668,200,0xFF,0x00
49.606311416666664,201,0xF3,0xFF
49.971978916666664,202,0x17,0xFF
49.972006208333333,202,0x02,0xFF
49.972044291666670,202,0xFF,0x87
49.972071833333331,202,0xFF,0x03
49.972099291666666,202,0xFF,0x00
50.072979875000001,203,0xF3,0xFF
50.438666249999997,204,0x17,0xFF
50.438693541666666,204,0x02,0xFF
50.438731625000003,204,0xFF,0x4E
50.438759166666664,204,0xFF,0x04
50.438786583333332,204,0xFF,0x00
50.539676624999998,205,0xF3,0xFF
50.905353208333331,206,0x17,0xFF
50.905380500000000,206,0x02,0xFF
50.905418583333336,206,0xFF,0x64
50.905446083333331,206,0xFF,0x04
50.905473458333333,206,0xFF,0x00
51.006373208333336,207,0xF3,0xFF
51.372004208333337,208,0x17,0xFF
51.372031499999999,208,0x02,0xFF
51.372069583333335,208,0xFF,0x83
51.372097083333337,208,0xFF,0x04
51.372124458333332,208,0xFF,0x00
51.472993000000002,209,0xF3,0xFF
51.838513708333330,210,0x17,0xFF
51.838540999999999,210,0x02,0xFF
51.838579083333336,210,0xFF,0xE8
51.838606624999997,210,0xFF,0x03
51.838634083333332,210,0xFF,0x00
51.939542166666669,211,0xF3,0xFF
52.305234874999996,212,0x17,0xFF
52.305262166666665,212,0x02,0xFF
52.305300291666668,212,0xFF,0x2C
52.305327791666670,212,0xFF,0x03
52.305355249999998,212,0xFF,0x00
52.406237208333330,213,0xF3,0xFF
52.771808041666667,214,0x17,0xFF
52.771835333333335,214,0x02,0xFF
52.771873416666665,214,0xFF,0xC6
52.771900916666667,214,0xFF,0x02
52.771928333333335,214,0xFF,0x00
52.872806249999996,215,0xF3,0xFF
53.238507208333331,216,0x17,0xFF
53.238534500000000,216,0x02,0xFF
53.238572625000003,216,0xFF,0x81
53.238600083333331,216,0xFF,0x02
53.238627500000000,216,0xFF,0x00
53.339530333333336,217,0xF3,0xFF
53.705365416666666,218,0x17,0xFF
53.705392750000001,218,0x02,0xFF
53.705430833333331,218,0xFF,0xB4
53.705458374999999,218,0xFF,0x02
53.705485833333334,218,0xFF,0x00
53.806387749999999,219,0xF3,0xFF
54.172152708333336,220,0x17,0xFF
54.172179999999997,220,0x02,0xFF
54.172218125000001,220,0xFF,0x83
54.172245625000002,220,0xFF,0x03
54.172273083333330,220,0xFF,0x00
54.273206375000001,221,0xF3,0xFF
54.639010583333331,222,0x17,0xFF
54.639037875000000,222,0x02,0xFF
54.639075958333336,222,0xFF,0xE2
54.639103541666664,222,0xFF,0x03
54.639130999999999,222,0xFF,0x00
54.740050208333336,223,0xF3,0xFF
55.105685416666667,224,0x17,0xFF
55.105712750000002,224,0x02,0xFF
55.105750833333332,224,0xFF,0x11
55.105778291666667,224,0xFF,0x03
55.105805708333335,224,0xFF,0x00
55.206678875000001,225,0xF3,0xFF
55.572199291666664,226,0x17,0xFF
55.572226583333332,226,0x02,0xFF
55.572264666666669,226,0xFF,0xF4
55.572292249999997,226,0xFF,0x03
55.572319708333332,226,0xFF,0x00
55.673156541666664,227,0xF3,0xFF
56.038666333333332,228,0x17,0xFF
56.038693625000001,228,0x02,0xFF
56.038731708333330,228,0xFF,0x3C
56.038759249999998,228,0xFF,0x03
56.038786708333333,228,0xFF,0x00
56.139666666666663,229,0xF3,0xFF
56.506391499999999,230,0x17,0xFF
56.506418791666668,230,0x02,0xFF
56.506456874999998,230,0xFF,0x55
56.506484416666666,230,0xFF,0x05
56.506511875000001,230,0xFF,0x00
56.607418375000002,231,0xF3,0xFF
56.972088833333331,232,0x17,0xFF
56.972116124999999,232,0x02,0xFF
56.972154166666670,232,0xFF,0xBC
56.972181749999997,232,0xFF,0x03
56.972209166666666,232,0xFF,0x00
57.073120125000003,233,0xF3,0xFF
57.439767375000002,234,0x17,0xFF
57.439794624999998,234,0x02,0xFF
57.439832708333334,234,0xFF,0x3D
57.439860291666669,234,0xFF,0x04
57.439887666666664,234,0xFF,0x00
57.540768541666665,235,0xF3,0xFF
57.906403541666670,236,0x17,0xFF
57.906430833333332,236,0x02,0xFF
57.906468916666668,236,0xFF,0x22
57.906496333333337,236,0xFF,0x03
57.906523791666665,236,0xFF,0x00
58.007381833333334,237,0xF3,0xFF
58.372924166666664,238,0x17,0xFF
58.372951458333333,238,0x02,0xFF
58.372989541666669,238,0xFF,0x41
58.373016999999997,238,0xFF,0x03
58.373044458333332,238,0xFF,0x00
58.473920916666664,239,0xF3,0xFF
58.839511666666667,240,0x17,0xFF
58.839538958333335,240,0x02,0xFF
58.839577041666665,240,0xFF,0xF0
58.839604541666667,240,0xFF,0x02
58.839631958333335,240,0xFF,0x00
58.940527833333334,241,0xF3,0xFF
59.306164541666668,242,0x17,0xFF
59.306191833333337,242,0x02,0xFF
59.306229916666666,242,0xFF,0xA7
59.306257500000001,242,0xFF,0x03
59.306284916666669,242,0xFF,0x00
59.407128374999999,243,0xF3,0xFF
59.772673750000003,244,0x17,0xFF
59.772700999999998,244,0x02,0xFF
59.772739041666668,244,0xFF,0x84
59.772766458333336,244,0xFF,0x02
59.772793874999998,244,0xFF,0x00
59.873628250000003,245,0xF3,0xFF
60.239206333333335,246,0x17,0xFF
60.239233624999997,246,0x02,0xFF
60.239271750000000,246,0xFF,0x15
60.239299250000002,246,0xFF,0x03
60.239326708333330,246,0xFF,0x00
60.340216374999997,247,0xF3,0xFF
60.705765208333332,248,0x17,0xFF
60.705792458333335,248,0x02,0xFF
60.705830541666664,248,0xFF,0xCB
60.705858083333332,248,0xFF,0xFF
60.705885750000000,248,0xFF,0xFF
60.806720208333331,249,0xF3,0xFF
61.173252124999998,250,0x17,0xFF
61.173279416666666,250,0x02,0xFF
61.173317458333337,250,0xFF,0x85
61.173344958333331,250,0xFF,0x04
61.173372375000000,250,0xFF,0x00
61.274253958333333,251,0xF3,0xFF
61.639903583333336,252,0x17,0xFF
61.639930874999997,252,0x02,0xFF
61.639969000000001,252,0xFF,0xC5
61.639996541666669,252,0xFF,0x03
61.640023999999997,252,0xFF,0x00
61.740888208333331,253,0xF3,0xFF
62.106500875000002,254,0x17,0xFF
62.106528166666664,254,0x02,0xFF
62.106566291666667,254,0xFF,0xB8
62.106593833333335,254,0xFF,0x01
62.106621250000003,254,0xFF,0x00
62.207537041666669,255,0xF3,0xFF
62.573134291666669,256,0x17,0xFF
62.573161583333331,256,0x02,0xFF
62.573199666666667,256,0xFF,0x1F
62.573227208333336,256,0xFF,0x04
62.573254624999997,256,0xFF,0x00
62.674095250000001,257,0xF3,0xFF
63.039630291666668,258,0x17,0xFF
63.039657541666664,258,0x02,0xFF
63.039695625000000,258,0xFF,0x8D
63.039723125000002,258,0xFF,0x03
63.039750583333330,258,0xFF,0x00
63.140608916666665,259,0xF3,0xFF
63.506185166666668,260,0x17,0xFF
63.506212416666664,260,0x02,0xFF
63.506250500000000,260,0xFF,0x6B
63.506278083333335,260,0xFF,0x04
63.506305500000003,260,0xFF,0x00
63.607181666666669,261,0xF3,0xFF
63.972806666666663,262,0x17,0xFF
63.972833958333332,262,0x02,0xFF
63.972872041666669,262,0xFF,0xB9
63.972899624999997,262,0xFF,0x02
63.972927041666665,262,0xFF,0x00
64.073817041666672,263,0xF3,0xFF
64.439325666666662,264,0x17,0xFF
64.439352958333330,264,0x02,0xFF
64.439391041666667,264,0xFF,0xAE
64.439418583333335,264,0xFF,0x03
64.439446041666670,264,0xFF,0x00
64.540281541666673,265,0xF3,0xFF
64.906827041666673,266,0x17,0xFF
64.906854291666662,266,0x02,0xFF
64.906892374999998,266,0xFF,0xC9
64.906919916666666,266,0xFF,0x03
64.906947375000001,266,0xFF,0x00
65.007818041666667,267,0xF3,0xFF
65.373387166666660,268,0x17,0xFF
65.373414416666662,268,0x02,0xFF
65.373452499999999,268,0xFF,0x9D
65.373480083333334,268,0xFF,0x02
65.373507500000002,268,0xFF,0x00
65.474351041666665,269,0xF3,0xFF
65.606613249999995,270,0x17,0xFF
65.606640499999997,270,0x02,0xFF
65.606678583333334,270,0xFF,0x9D
65.606706125000002,270,0xFF,0x02
65.606733541666671,270,0xFF,0x00
65.707574708333340,271,0xF3,0xFF
66.072947124999999,272,0x17,0xFF
66.072974416666668,272,0x02,0xFF
66.073012500000004,272,0xFF,0x5A
66.073040000000006,272,0xFF,0x02
66.073067416666660,272,0xFF,0x00
66.173899208333339,273,0xF3,0xFF
66.540428166666672,274,0x17,0xFF
66.540455416666660,274,0x02,0xFF
66.540493499999997,274,0xFF,0xBD
66.540521124999998,274,0xFF,0x02
66.540548500000000,274,0xFF,0x00
66.641393249999993,275,0xF3,0xFF
67.006875291666660,276,0x17,0xFF
67.006902541666662,276,0x02,0xFF
67.006940583333332,276,0xFF,0x7E
67.006968208333333,276,0xFF,0x02
67.006995583333335,276,0xFF,0x00
67.107832958333333,277,0xF3,0xFF
67.473240041666671,278,0x17,0xFF
67.473267291666673,278,0x02,0xFF
67.473305333333329,278,0xFF,0x04
67.473332708333331,278,0xFF,0x02
67.473360124999999,278,0xFF,0x00
67.574164708333328,279,0xF3,0xFF
67.939618541666661,280,0x17,0xFF
67.939645833333330,280,0x02,0xFF
67.939683916666667,280,0xFF,0xE9
67.939711458333335,280,0xFF,0x03
67.939738916666670,280,0xFF,0x00
68.040598958333334,281,0xF3,0xFF
68.407149000000004,282,0x17,0xFF
68.407176333333339,282,0x02,0xFF
68.407214458333328,282,0xFF,0x68
68.407241958333330,282,0xFF,0x03
68.407269416666665,282,0xFF,0x00
68.508135541666661,283,0xF3,0xFF
68.873651708333327,284,0x17,0xFF
68.873678958333329,284,0x02,0xFF
68.873716999999999,284,0xFF,0x36
68.873744500000001,284,0xFF,0x03
68.873771958333336,284,0xFF,0x00
68.974566333333328,285,0xF3,0xFF
69.339994625000003,286,0x17,0xFF
69.340021916666672,286,0x02,0xFF
69.340059999999994,286,0xFF,0x70
69.340087499999996,286,0xFF,0x04
69.340114874999998,286,0xFF,0x00
69.440925291666673,287,0xF3,0xFF
69.806442250000003,288,0x17,0xFF
69.806469500000006,288,0x02,0xFF
69.806507583333328,288,0xFF,0xDB
69.806535166666663,288,0xFF,0x04
69.806562583333331,288,0xFF,0x00
69.907400124999995,289,0xF3,0xFF
70.273963916666673,290,0x17,0xFF
70.273991166666661,290,0x02,0xFF
70.274029249999998,290,0xFF,0xE2
70.274056750000000,290,0xFF,0x03
70.274084208333335,290,0xFF,0x00
70.374944541666665,291,0xF3,0xFF
70.740563041666661,292,0x17,0xFF
70.740590333333330,292,0x02,0xFF
70.740628458333333,292,0xFF,0x21
70.740655916666668,292,0xFF,0x04
70.740683375000003,292,0xFF,0x00
70.841585749999993,293,0xF3,0xFF
71.207279000000000,294,0x17,0xFF
71.207306291666669,294,0x02,0xFF
71.207344416666672,294,0xFF,0xD4
71.207371958333340,294,0xFF,0x03
71.207399416666661,294,0xFF,0x00
71.308328916666667,295,0xF3,0xFF
71.674107583333338,296,0x17,0xFF
71.674134874999993,296,0x02,0xFF
71.674172958333330,296,0xFF,0xA3
71.674200458333331,296,0xFF,0x02
71.674227875000000,296,0xFF,0x00
71.775086625000000,297,0xF3,0xFF
72.140661333333327,298,0x17,0xFF
72.140688624999996,298,0x02,0xFF
72.140726708333332,298,0xFF,0x3E
72.140754250000001,298,0xFF,0x03
72.140781708333336,298,0xFF,0x00
72.241648499999997,299,0xF3,0xFF
72.607303333333334,300,0x17,0xFF
72.607330625000003,300,0x02,0xFF
72.607368708333340,300,0xFF,0x12
72.607396166666661,300,0xFF,0x04
72.607423541666662,300,0xFF,0x00
72.708306583333339,301,0xF3,0xFF
73.073876041666665,302,0x17,0xFF
73.073903333333334,302,0x02,0xFF
73.073941416666671,302,0xFF,0x17
73.073968958333339,302,0xFF,0x03
73.073996416666660,302,0xFF,0x00
73.174875624999999,303,0xF3,0xFF
73.540488458333328,304,0x17,0xFF
73.540515708333331,304,0x02,0xFF
73.540553791666667,304,0xFF,0x8A
73.540581250000002,304,0xFF,0x02
73.540608666666671,304,0xFF,0x00
73.641472375000006,305,0xF3,0xFF
74.007114458333334,306,0x17,0xFF
74.007141750000002,306,0x02,0xFF
74.007179833333339,306,0xFF,0x2F
74.007207374999993,306,0xFF,0x04
74.007234791666662,306,0xFF,0x00
74.108117833333338,307,0xF3,0xFF
74.473662375000004,308,0x17,0xFF
74.473689666666672,308,0x02,0xFF
74.473727749999995,308,0xFF,0x73
74.473755291666663,308,0xFF,0x03
74.473782749999998,308,0xFF,0x00
74.574641249999999,309,0xF3,0xFF
74.940200708333336,310,0x17,0xFF
74.940228000000005,310,0x02,0xFF
74.940266083333327,310,0xFF,0xF6
74.940293666666662,310,0xFF,0x03
74.940321124999997,310,0xFF,0x00
75.041214083333330,311,0xF3,0xFF
75.407824208333338,312,0x17,0xFF
75.407851541666673,312,0x02,0xFF
75.407889624999996,312,0xFF,0xBB
75.407917208333330,312,0xFF,0x03
75.407944666666666,312,0xFF,0x00
75.508840708333338,313,0xF3,0xFF
75.874493583333333,314,0x17,0xFF
75.874520916666668,314,0x02,0xFF
75.874559000000005,314,0xFF,0xCD
75.874586625000006,314,0xFF,0x01
75.874614041666661,314,0xFF,0x00
75.975521083333334,315,0xF3,0xFF
76.341104791666666,316,0x17,0xFF
76.341132083333335,316,0x02,0xFF
76.341170166666672,316,0xFF,0xAD
76.341197708333340,316,0xFF,0x03
76.341225166666661,316,0xFF,0x00
76.442104166666667,317,0xF3,0xFF
76.807570416666664,318,0x17,0xFF
76.807597666666666,318,0x02,0xFF
76.807635708333336,318,0xFF,0xAD
76.807663250000004,318,0xFF,0x03
76.807690666666673,318,0xFF,0x00
76.908540750000000,319,0xF3,0xFF
77.274095250000002,320,0x17,0xFF
77.274122541666671,320,0x02,0xFF
77.274160624999993,320,0xFF,0xDF
77.274188249999995,320,0xFF,0x03
77.274215708333330,320,0xFF,0x00
77.375058208333328,321,0xF3,0xFF
77.740666666666669,322,0x17,0xFF
77.740693958333338,322,0x02,0xFF
77.740731999999994,322,0xFF,0x3E
77.740759583333329,322,0xFF,0x04
77.740786958333331,322,0xFF,0x00
77.841667166666667,323,0xF3,0xFF
78.207208208333327,324,0x17,0xFF
78.207235458333329,324,0x02,0xFF
78.207273499999999,324,0xFF,0xD0
78.207300916666668,324,0xFF,0x04
78.207328291666670,324,0xFF,0x00
78.308142958333335,325,0xF3,0xFF
78.674663874999993,326,0x17,0xFF
78.674691166666662,326,0x02,0xFF
78.674729249999999,326,0xFF,0x25
78.674756750000000,326,0xFF,0x05
78.674784208333335,326,0xFF,0x00
78.775645874999995,327,0xF3,0xFF
79.141209500000002,328,0x17,0xFF
79.141236791666671,328,0x02,0xFF
79.141274874999993,328,0xFF,0x6E
79.141302458333328,328,0xFF,0x04
79.141329874999997,328,0xFF,0x00
79.242189666666661,329,0xF3,0xFF
79.607789124999996,330,0x17,0xFF
79.607816416666665,330,0x02,0xFF
79.607854500000002,330,0xFF,0x49
79.607882000000004,330,0xFF,0x03
79.607909458333339,330,0xFF,0x00
79.708780208333337,331,0xF3,0xFF
80.074455000000000,332,0x17,0xFF
80.074482291666669,332,0x02,0xFF
80.074520416666672,332,0xFF,0x94
80.074547916666660,332,0xFF,0x02
80.074575333333328,332,0xFF,0x00
80.175454291666668,333,0xF3,0xFF
80.541080958333339,334,0x17,0xFF
80.541108249999994,334,0x02,0xFF
80.541146333333330,334,0xFF,0xED
80.541173958333331,334,0xFF,0x03
80.541201416666667,334,0xFF,0x00
80.642079374999994,335,0xF3,0xFF
81.007723208333331,336,0x17,0xFF
81.007750500000000,336,0x02,0xFF
81.007788583333337,336,0xFF,0x59
81.007816125000005,336,0xFF,0x04
81.007843541666674,336,0xFF,0x00
81.108740333333330,337,0xF3,0xFF
81.474452916666664,338,0x17,0xFF
81.474480208333333,338,0x02,0xFF
81.474518250000003,338,0xFF,0x42
81.474545666666671,338,0xFF,0x04
81.474573083333340,338,0xFF,0x00
81.575385999999995,339,0xF3,0xFF
81.940939958333331,340,0x17,0xFF
81.940967250000000,340,0x02,0xFF
81.941005333333337,340,0xFF,0x04
81.941032750000005,340,0xFF,0x03
81.941060208333340,340,0xFF,0x00
82.041901708333327,341,0xF3,0xFF
82.407358583333334,342,0x17,0xFF
82.407385833333336,342,0x02,0xFF
82.407423916666673,342,0xFF,0xB8
82.407451458333327,342,0xFF,0x03
82.407478874999995,342,0xFF,0x00
82.508299458333340,343,0xF3,0xFF
82.874731416666663,344,0x17,0xFF
82.874758708333331,344,0x02,0xFF
82.874796791666668,344,0xFF,0x07
82.874824291666670,344,0xFF,0x03
82.874851708333338,344,0xFF,0x00
82.975701000000001,345,0xF3,0xFF
83.341173583333330,346,0x17,0xFF
83.341200833333332,346,0x02,0xFF
83.341238916666669,346,0xFF,0x04
83.341266291666670,346,0xFF,0x03
83.341293750000006,346,0xFF,0x00
83.442131875000001,347,0xF3,0xFF
83.807649624999996,348,0x17,0xFF
83.807676916666665,348,0x02,0xFF
83.807714958333335,348,0xFF,0x67
83.807742541666670,348,0xFF,0x03
83.807769958333338,348,0xFF,0x00
83.908597624999999,349,0xF3,0xFF
84.275207583333327,350,0x17,0xFF
84.275234833333329,350,0x02,0xFF
84.275272916666665,350,0xFF,0x97
84.275300500000000,350,0xFF,0x07
84.275327958333335,350,0xFF,0x00
84.376216249999999,351,0xF3,0xFF
84.741871416666669,352,0x17,0xFF
84.741898708333338,352,0x02,0xFF
84.741936749999994,352,0xFF,0xC2
84.741964249999995,352,0xFF,0x03
84.741991708333330,352,0xFF,0x00
84.842893250000003,353,0xF3,0xFF
85.208454708333335,354,0x17,0xFF
85.208481958333337,354,0x02,0xFF
85.208519999999993,354,0xFF,0xEB
85.208547624999994,354,0xFF,0x03
85.208575041666663,354,0xFF,0x00
85.309428499999996,355,0xF3,0xFF
85.674993000000001,356,0x17,0xFF
85.675020291666669,356,0x02,0xFF
85.675058375000006,356,0xFF,0xEF
85.675085999999993,356,0xFF,0x03
85.675113458333328,356,0xFF,0x00
85.776008666666669,357,0xF3,0xFF
86.141641750000005,358,0x17,0xFF
86.141669041666660,358,0x02,0xFF
86.141707083333330,358,0xFF,0x8D
86.141734624999998,358,0xFF,0x03
86.141762083333333,358,0xFF,0x00
86.242669041666673,359,0xF3,0xFF
86.608310416666669,360,0x17,0xFF
86.608337666666671,360,0x02,0xFF
86.608375749999993,360,0xFF,0x52
86.608403249999995,360,0xFF,0x04
86.608430624999997,360,0xFF,0x00
86.709328083333332,361,0xF3,0xFF
87.074830916666670,362,0x17,0xFF
87.074858208333339,362,0x02,0xFF
87.074896249999995,362,0xFF,0xC1
87.074923749999996,362,0xFF,0x02
87.074951124999998,362,0xFF,0x00
87.175804541666665,363,0xF3,0xFF
87.541303666666664,364,0x17,0xFF
87.541330958333333,364,0x02,0xFF
87.541369041666670,364,0xFF,0x7B
87.541396666666671,364,0xFF,0x03
87.541424083333339,364,0xFF,0x00
87.642265791666674,365,0xF3,0xFF
88.008740208333336,366,0x17,0xFF
88.008767500000005,366,0x02,0xFF
88.008805583333327,366,0xFF,0xC9
88.008833083333329,366,0xFF,0x02
88.008860499999997,366,0xFF,0x00
88.109703541666661,367,0xF3,0xFF
88.475062666666673,368,0x17,0xFF
88.475089916666661,368,0x02,0xFF
88.475127999999998,368,0xFF,0x8A
88.475155500000000,368,0xFF,0x03
88.475182916666668,368,0xFF,0x00
88.575989791666672,369,0xF3,0xFF
88.941476958333340,370,0x17,0xFF
88.941504249999994,370,0x02,0xFF
88.941542291666664,370,0xFF,0x9E
88.941569874999999,370,0xFF,0x01
88.941597291666668,370,0xFF,0x00
89.042456000000001,371,0xF3,0xFF
89.408058208333330,372,0x17,0xFF
89.408085541666665,372,0x02,0xFF
89.408123625000002,372,0xFF,0xDE
89.408151250000003,372,0xFF,0x03
89.408178708333338,372,0xFF,0x00
89.509065083333340,373,0xF3,0xFF
89.874688833333337,374,0x17,0xFF
89.874716125000006,374,0x02,0xFF
89.874754208333329,374,0xFF,0x52
89.874781708333330,374,0xFF,0x02
89.874809124999999,374,0xFF,0x00
89.975688333333338,375,0xF3,0xFF
90.342215083333329,376,0x17,0xFF
90.342242374999998,376,0x02,0xFF
90.342280416666668,376,0xFF,0xC2
90.342307916666670,376,0xFF,0x03
90.342335333333338,376,0xFF,0x00
90.443150250000002,377,0xF3,0xFF
90.808580708333338,378,0x17,0xFF
90.808607958333340,378,0x02,0xFF
90.808646041666663,378,0xFF,0x4C
90.808673541666664,378,0xFF,0x03
90.808700999999999,378,0xFF,0x00
90.909534916666672,379,0xF3,0xFF
91.274979250000001,380,0x17,0xFF
91.275006541666670,380,0x02,0xFF
91.275044625000007,380,0xFF,0x88
91.275072083333328,380,0xFF,0x03
91.275099541666663,380,0xFF,0x00
91.375941291666663,381,0xF3,0xFF
91.741533250000003,382,0x17,0xFF
91.741560541666672,382,0x02,0xFF
91.741598624999995,382,0xFF,0x1B
91.741626166666663,382,0xFF,0x03
91.741653583333331,382,0xFF,0x00
91.842543750000004,383,0xF3,0xFF
92.209152750000001,384,0x17,0xFF
92.209180041666670,384,0x02,0xFF
92.209218083333340,384,0xFF,0x16
92.209245583333328,384,0xFF,0x05
92.209273041666663,384,0xFF,0x00
92.310105750000005,385,0xF3,0xFF
92.675640541666667,386,0x17,0xFF
92.675667833333335,386,0x02,0xFF
92.675705916666672,386,0xFF,0x77
92.675733541666673,386,0xFF,0x03
92.675760999999994,386,0xFF,0x00
92.776656333333335,387,0xF3,0xFF
93.142229833333332,388,0x17,0xFF
93.142257125000000,388,0x02,0xFF
93.142295208333337,388,0xFF,0x55
93.142322708333339,388,0xFF,0x04
93.142350124999993,388,0xFF,0x00
93.243241333333330,389,0xF3,0xFF
93.608931416666664,390,0x17,0xFF
93.608958708333333,390,0x02,0xFF
93.608996791666669,390,0xFF,0x18
93.609024250000004,390,0xFF,0x04
93.609051666666673,390,0xFF,0x00
93.709926541666661,391,0xF3,0xFF
94.075509708333328,392,0x17,0xFF
94.075536999999997,392,0x02,0xFF
94.075575083333334,392,0xFF,0x61
94.075602583333335,392,0xFF,0x03
94.075630000000004,392,0xFF,0x00
94.176485208333332,393,0xF3,0xFF
94.542019666666661,394,0x17,0xFF
94.542046958333330,394,0x02,0xFF
94.542085041666667,394,0xFF,0x36
94.542112583333335,394,0xFF,0x04
94.542140000000003,394,0xFF,0x00
94.642984999999996,395,0xF3,0xFF
95.008505499999998,396,0x17,0xFF
95.008532791666667,396,0x02,0xFF
95.008570875000004,396,0xFF,0x23
95.008598375000005,396,0xFF,0x04
95.008625791666660,396,0xFF,0x00
95.109489999999994,397,0xF3,0xFF
95.475247083333329,398,0x17,0xFF
95.475274374999998,398,0x02,0xFF
95.475312500000001,398,0xFF,0xC2
95.475340000000003,398,0xFF,0x02
95.475367416666671,398,0xFF,0x00
95.576295999999999,399,0xF3,0xFF
95.942043749999996,400,0x17,0xFF
95.942071041666665,400,0x02,0xFF
95.942109125000002,400,0xFF,0x34
95.942136625000003,400,0xFF,0x03
95.942164083333338,400,0xFF,0x00
96.043074708333336,401,0xF3,0xFF
96.408791833333339,402,0x17,0xFF
96.408819124999994,402,0x02,0xFF
96.408857249999997,402,0xFF,0x72
96.408884791666665,402,0xFF,0x02
96.408912250000000,402,0xFF,0x00
96.509814541666671,403,0xF3,0xFF
96.875443250000004,404,0x17,0xFF
96.875470541666672,404,0x02,0xFF
96.875508666666661,404,0xFF,0x65
96.875536166666663,404,0xFF,0x03
96.875563666666665,404,0xFF,0x00
96.976450999999997,405,0xF3,0xFF
97.342239666666671,406,0x17,0xFF
97.342266958333340,406,0x02,0xFF
97.342305083333329,406,0xFF,0x0F
97.342332624999997,406,0xFF,0x03
97.342360083333332,406,0xFF,0x00
97.443246250000001,407,0xF3,0xFF
97.808895875000005,408,0x17,0xFF
97.808923166666673,408,0x02,0xFF
97.808961249999996,408,0xFF,0x54
97.808988749999997,408,0xFF,0x03
97.809016208333333,408,0xFF,0x00
97.909904666666662,409,0xF3,0xFF
98.275555374999996,410,0x17,0xFF
98.275582666666665,410,0x02,0xFF
98.275620750000002,410,0xFF,0x2B
98.275648250000003,410,0xFF,0x03
98.275675708333338,410,0xFF,0x00
98.376553791666666,411,0xF3,0xFF
98.742093291666663,412,0x17,0xFF
98.742120583333332,412,0x02,0xFF
98.742158625000002,412,0xFF,0x94
98.742186125000003,412,0xFF,0x03
98.742213541666672,412,0xFF,0x00
98.843054416666661,413,0xF3,0xFF
99.209746958333326,414,0x17,0xFF
99.209774249999995,414,0x02,0xFF
99.209812291666665,414,0xFF,0xE7
99.209839916666667,414,0xFF,0x03
99.209867375000002,414,0xFF,0x00
99.310748083333337,415,0xF3,0xFF
99.676324583333340,416,0x17,0xFF
99.676351874999995,416,0x02,0xFF
99.676389958333331,416,0xFF,0xBB
99.676417541666666,416,0xFF,0x02
99.676444958333335,416,0xFF,0x00
99.777297708333336,417,0xF3,0xFF
100.142887625000000,418,0x17,0xFF
100.142914916666669,418,0x02,0xFF
100.142953000000006,418,0xFF,0x7C
100.142980583333340,418,0xFF,0x03
100.143008041666661,418,0xFF,0x00
100.243871999999996,419,0xF3,0xFF
100.609438833333328,420,0x17,0xFF
100.609466124999997,420,0x02,0xFF
100.609504166666667,420,0xFF,0x93
100.609531666666669,420,0xFF,0x04
100.609559041666671,420,0xFF,0x00
100.710406500000005,421,0xF3,0xFF
101.076009291666665,422,0x17,0xFF
101.076036583333334,422,0x02,0xFF
101.076074625000004,422,0xFF,0x69
101.076102166666672,422,0xFF,0x04
101.076129583333326,422,0xFF,0x00
101.176973750000002,423,0xF3,0xFF
101.542460375000005,424,0x17,0xFF
101.542487666666673,424,0x02,0xFF
101.542525749999996,424,0xFF,0x52
101.542553208333331,424,0xFF,0x03
101.542580666666666,424,0xFF,0x00
101.643416083333335,425,0xF3,0xFF
102.009928291666668,426,0x17,0xFF
102.009955583333337,426,0x02,0xFF
102.009993625000007,426,0xFF,0xB4
102.010021166666661,426,0xFF,0x03
102.010048624999996,426,0xFF,0x00
102.110892875000005,427,0xF3,0xFF
102.476366041666665,428,0x17,0xFF
102.476393333333334,428,0x02,0xFF
102.476431416666671,428,0xFF,0xF3
102.476459000000006,428,0xFF,0x03
102.476486416666660,428,0xFF,0x00
102.577297583333333,429,0xF3,0xFF
102.942766333333338,430,0x17,0xFF
102.942793583333327,430,0x02,0xFF
102.942831666666663,430,0xFF,0x88
102.942859083333332,430,0xFF,0x04
102.942886458333334,430,0xFF,0x00
103.043705083333336,431,0xF3,0xFF
103.409075250000001,432,0x17,0xFF
103.409102541666670,432,0x02,0xFF
103.409140625000006,432,0xFF,0x6B
103.409168166666660,432,0xFF,0x02
103.409195583333329,432,0xFF,0x00
103.510030333333333,433,0xF3,0xFF
103.876532083333331,434,0x17,0xFF
103.876559374999999,434,0x02,0xFF
103.876597458333336,434,0xFF,0x28
103.876624875000005,434,0xFF,0x02
103.876652291666673,434,0xFF,0x00
103.977484875000002,435,0xF3,0xFF
104.343008874999995,436,0x17,0xFF
104.343036166666664,436,0x02,0xFF
104.343074250000001,436,0xFF,0x62
104.343101750000002,436,0xFF,0x03
104.343129166666671,436,0xFF,0x00
104.443985541666663,437,0xF3,0xFF
104.809457666666660,438,0x17,0xFF
104.809484916666662,438,0x02,0xFF
104.809522999999999,438,0xFF,0x4E
104.809550541666667,438,0xFF,0x04
104.809577958333335,438,0xFF,0x00
104.910460958333331,439,0xF3,0xFF
105.276151874999996,440,0x17,0xFF
105.276179166666665,440,0x02,0xFF
105.276217250000002,440,0xFF,0xF6
105.276244833333337,440,0xFF,0x02
105.276272250000005,440,0xFF,0x00
105.377141583333326,441,0xF3,0xFF
105.742728458333332,442,0x17,0xFF
105.742755750000001,442,0x02,0xFF
105.742793833333337,442,0xFF,0x29
105.742821333333339,442,0xFF,0x02
105.742848708333327,442,0xFF,0x00
105.843710750000000,443,0xF3,0xFF
106.210286499999995,444,0x17,0xFF
106.210313791666664,444,0x02,0xFF
106.210351875000001,444,0xFF,0x9D
106.210379458333335,444,0xFF,0x02
106.210406875000004,444,0xFF,0x00
106.311295541666667,445,0xF3,0xFF
106.676835624999995,446,0x17,0xFF
106.676862958333331,446,0x02,0xFF
106.676901041666667,446,0xFF,0xB6
106.676928625000002,446,0xFF,0x02
106.676956041666671,446,0xFF,0x00
106.777826625000003,447,0xF3,0xFF
107.143415625000003,448,0x17,0xFF
107.143442916666672,448,0x02,0xFF
107.143480999999994,448,0xFF,0x88
107.143508458333329,448,0xFF,0x02
107.143535874999998,448,0xFF,0x00
107.244418624999994,449,0xF3,0xFF
107.609944624999997,450,0x17,0xFF
107.609971874999999,450,0x02,0xFF
107.610009916666669,450,0xFF,0x75
107.610037458333338,450,0xFF,0x03
107.610064875000006,450,0xFF,0x00
107.710898624999999,451,0xF3,0xFF
108.076470041666667,452,0x17,0xFF
108.076497333333336,452,0x02,0xFF
108.076535375000006,452,0xFF,0x53
108.076562916666660,452,0xFF,0x02
108.076590333333328,452,0xFF,0x00
108.177441958333333,453,0xF3,0xFF
108.542968916666666,454,0x17,0xFF
108.542996208333335,454,0x02,0xFF
108.543034291666672,454,0xFF,0x73
108.543061875000006,454,0xFF,0x03
108.543089333333327,454,0xFF,0x00
108.643996958333332,455,0xF3,0xFF
109.009633875000006,456,0x17,0xFF
109.009661166666660,456,0x02,0xFF
109.009699249999997,456,0xFF,0xBC
109.009726833333332,456,0xFF,0x02
109.009754208333334,456,0xFF,0x00
109.110624375000000,457,0xF3,0xFF
109.477126249999998,458,0x17,0xFF
109.477153541666667,458,0x02,0xFF
109.477191583333337,458,0xFF,0x88
109.477219000000005,458,0xFF,0x03
109.477246458333340,458,0xFF,0x00
109.578113291666668,459,0xF3,0xFF
109.943797208333336,460,0x17,0xFF
109.943824500000005,460,0x02,0xFF
109.943862583333328,460,0xFF,0x62
109.943890083333329,460,0xFF,0x02
109.943917499999998,460,0xFF,0x00
110.044816249999997,461,0xF3,0xFF
110.410416958333329,462,0x17,0xFF
110.410444208333331,462,0x02,0xFF
110.410482291666668,462,0xFF,0x21
110.410509708333336,462,0xFF,0x03
110.410537125000005,462,0xFF,0x00
110.511380333333335,463,0xF3,0xFF
110.877009416666667,464,0x17,0xFF
110.877036708333335,464,0x02,0xFF
110.877074791666672,464,0xFF,0xF6
110.877102375000007,464,0xFF,0x03
110.877129833333328,464,0xFF,0x00
110.977993583333330,465,0xF3,0xFF
111.343582249999997,466,0x17,0xFF
111.343609583333333,466,0x02,0xFF
111.343647666666669,466,0xFF,0x19
111.343675166666671,466,0xFF,0x03
111.343702583333339,466,0xFF,0x00
111.444567125000006,467,0xF3,0xFF
111.810137416666663,468,0x17,0xFF
111.810164666666665,468,0x02,0xFF
111.810202750000002,468,0xFF,0xC3
111.810230250000004,468,0xFF,0x03
111.810257666666672,468,0xFF,0x00
111.911114624999996,469,0xF3,0xFF
112.276550458333332,470,0x17,0xFF
112.276577750000001,470,0x02,0xFF
112.276615833333338,470,0xFF,0x6D
112.276643375000006,470,0xFF,0x04
112.276670791666660,470,0xFF,0x00
112.377494791666663,471,0xF3,0xFF
112.743911166666663,472,0x17,0xFF
112.743938416666666,472,0x02,0xFF
112.743976500000002,472,0xFF,0x64
112.744004000000004,472,0xFF,0x04
112.744031375000006,472,0xFF,0x00
112.844872083333328,473,0xF3,0xFF
113.210381916666663,474,0x17,0xFF
113.210409208333331,474,0x02,0xFF
113.210447291666668,474,0xFF,0x2B
113.210474791666670,474,0xFF,0x05
113.210502250000005,474,0xFF,0x00
113.311383500000005,475,0xF3,0xFF
113.676989750000004,476,0x17,0xFF
113.677017041666673,476,0x02,0xFF
113.677055124999995,476,0xFF,0xDB
113.677082749999997,476,0xFF,0x03
113.677110208333332,476,0xFF,0x00
113.777993041666662,477,0xF3,0xFF
114.143639458333340,478,0x17,0xFF
114.143666791666661,478,0x02,0xFF
114.143704874999997,478,0xFF,0xFA
114.143732499999999,478,0xFF,0x03
114.143759958333334,478,0xFF,0x00
114.244678583333339,479,0xF3,0xFF
114.610372541666663,480,0x17,0xFF
114.610399833333332,480,0x02,0xFF
114.610437916666669,480,0xFF,0x71
114.610465458333337,480,0xFF,0x03
114.610492916666672,480,0xFF,0x00
114.711403541666670,481,0xF3,0xFF
115.076944333333330,482,0x17,0xFF
115.076971583333332,482,0x02,0xFF
115.077009666666669,482,0xFF,0xE0
115.077037125000004,482,0xFF,0x02
115.077064541666672,482,0xFF,0x00
115.177898583333331,483,0xF3,0xFF
115.543380166666665,484,0x17,0xFF
115.543407458333334,484,0x02,0xFF
115.543445500000004,484,0xFF,0x96
115.543473041666672,484,0xFF,0x02
115.543500416666660,484,0xFF,0x00
115.644329833333330,485,0xF3,0xFF
116.010867458333337,486,0x17,0xFF
116.010894750000006,486,0x02,0xFF
116.010932874999995,486,0xFF,0x4F
116.010960416666663,486,0xFF,0x02
116.010987833333331,486,0xFF,0x00
116.111855625000004,487,0xF3,0xFF
116.477546708333335,488,0x17,0xFF
116.477574000000004,488,0x02,0xFF
116.477612083333327,488,0xFF,0xB8
116.477639624999995,488,0xFF,0x02
116.477667041666663,488,0xFF,0x00
116.578564583333332,489,0xF3,0xFF
116.944166749999994,490,0x17,0xFF
116.944194083333329,490,0x02,0xFF
116.944232166666666,490,0xFF,0xCE
116.944259750000001,490,0xFF,0x03
116.944287208333336,490,0xFF,0x00
117.045160083333329,491,0xF3,0xFF
117.410776249999998,492,0x17,0xFF
117.410803541666667,492,0x02,0xFF
117.410841583333337,492,0xFF,0xE8
117.410869125000005,492,0xFF,0x02
117.410896541666673,492,0xFF,0x00
117.511751500000003,493,0xF3,0xFF
117.877365583333329,494,0x17,0xFF
117.877392874999998,494,0x02,0xFF
117.877430958333335,494,0xFF,0x31
117.877458458333336,494,0xFF,0x02
117.877485875000005,494,0xFF,0x00
117.978342499999997,495,0xF3,0xFF
118.343936874999997,496,0x17,0xFF
118.343964124999999,496,0x02,0xFF
118.344002208333336,496,0xFF,0xDC
118.344029791666671,496,0xFF,0x03
118.344057208333339,496,0xFF,0x00
118.444914124999997,497,0xF3,0xFF
118.810610999999994,498,0x17,0xFF
118.810638291666663,498,0x02,0xFF
118.810676375000000,498,0xFF,0x2F
118.810703958333335,498,0xFF,0x04
118.810731375000003,498,0xFF,0x00
118.911657791666670,499,0xF3,0xFF
119.277262791666672,500,0x17,0xFF
119.277290083333327,500,0x02,0xFF
119.277328124999997,500,0xFF,0x7C
119.277355708333332,500,0xFF,0x03
119.277383125000000,500,0xFF,0x00
119.378240583333337,501,0xF3,0xFF
119.743863833333336,502,0x17,0xFF
119.743891083333338,502,0x02,0xFF
119.743929208333327,502,0xFF,0x76
119.743956749999995,502,0xFF,0x02
119.743984166666664,502,0xFF,0x00
119.844881791666666,503,0xF3,0xFF
120.210515791666666,504,0x17,0xFF
120.210543083333334,504,0x02,0xFF
120.210581125000004,504,0xFF,0x99
120.210608666666673,504,0xFF,0x03
120.210636083333327,504,0xFF,0x00
120.311492833333332,505,0xF3,0xFF
120.678004041666668,506,0x17,0xFF
120.678031291666670,506,0x02,0xFF
120.678069375000007,506,0xFF,0x69
120.678096874999994,506,0xFF,0x03
120.678124333333329,506,0xFF,0x00
120.778963083333338,507,0xF3,0xFF
121.144477833333340,508,0x17,0xFF
121.144505124999995,508,0x02,0xFF
121.144543208333332,508,0xFF,0x7F
121.144570874999999,508,0xFF,0x02
121.144598291666668,508,0xFF,0x00
121.245421083333326,509,0xF3,0xFF
121.610879833333328,510,0x17,0xFF
121.610907124999997,510,0x02,0xFF
121.610945166666667,510,0xFF,0xC9
121.610972666666669,510,0xFF,0x03
121.611000083333337,510,0xFF,0x00
121.711820666666668,511,0xF3,0xFF
122.077335041666672,512,0x17,0xFF
122.077362291666660,512,0x02,0xFF
122.077400374999996,512,0xFF,0x4E
122.077427874999998,512,0xFF,0x03
122.077455291666666,512,0xFF,0x00
122.178300875000005,513,0xF3,0xFF
122.543901875000003,514,0x17,0xFF
122.543929166666672,514,0x02,0xFF
122.543967249999994,514,0xFF,0x4E
122.543994749999996,514,0xFF,0x05
122.544022208333331,514,0xFF,0x00
122.644868000000002,515,0xF3,0xFF
123.011477916666664,516,0x17,0xFF
123.011505249999999,516,0x02,0xFF
123.011543333333336,516,0xFF,0x4A
123.011570791666671,516,0xFF,0x04
123.011598208333339,516,0xFF,0x00
123.112465958333331,517,0xF3,0xFF
123.478161624999998,518,0x17,0xFF
123.478188916666667,518,0x02,0xFF
123.478227000000004,518,0xFF,0x88
123.478254458333339,518,0xFF,0x02
123.478281874999993,518,0xFF,0x00
123.579168416666661,519,0xF3,0xFF
123.944757124999995,520,0x17,0xFF
123.944784416666664,520,0x02,0xFF
123.944822458333334,520,0xFF,0xDF
123.944850125000002,520,0xFF,0x03
123.944877583333337,520,0xFF,0x00
124.045721791666665,521,0xF3,0xFF
124.411315999999999,522,0x17,0xFF
124.411343291666668,522,0x02,0xFF
124.411381333333338,522,0xFF,0xCA
124.411408875000006,522,0xFF,0x02
124.411436249999994,522,0xFF,0x00
124.512288333333331,523,0xF3,0xFF
124.877800416666673,524,0x17,0xFF
124.877827708333328,524,0x02,0xFF
124.877865791666665,524,0xFF,0xBE
124.877893416666666,524,0xFF,0x02
124.877920791666668,524,0xFF,0x00
124.978754124999995,525,0xF3,0xFF
125.344281124999995,526,0x17,0xFF
125.344308416666664,526,0x02,0xFF
125.344346541666667,526,0xFF,0xA4
125.344374041666669,526,0xFF,0x02
125.344401458333337,526,0xFF,0x00
125.445284291666667,527,0xF3,0xFF
125.810804208333337,528,0x17,0xFF
125.810831458333340,528,0x02,0xFF
125.810869541666662,528,0xFF,0x15
125.810897041666664,528,0xFF,0x04
125.810924416666666,528,0xFF,0x00
125.911750249999997,529,0xF3,0xFF
126.278296999999995,530,0x17,0xFF
126.278324291666664,530,0x02,0xFF
126.278362375000000,530,0xFF,0xDE
126.278389958333335,530,0xFF,0x03
126.278417416666670,530,0xFF,0x00
126.379278874999997,531,0xF3,0xFF
126.744796458333340,532,0x17,0xFF
126.744823708333328,532,0x02,0xFF
126.744861791666665,532,0xFF,0x28
126.744889208333333,532,0xFF,0x04
126.744916583333335,532,0xFF,0x00
126.845770541666667,533,0xF3,0xFF
127.211322458333328,534,0x17,0xFF
127.211349749999997,534,0x02,0xFF
127.211387875000000,534,0xFF,0xDA
127.211415458333335,534,0xFF,0x03
127.211442916666670,534,0xFF,0x00
127.312305458333327,535,0xF3,0xFF
127.677816833333338,536,0x17,0xFF
127.677844124999993,536,0x02,0xFF
127.677882166666663,536,0xFF,0xC8
127.677909624999998,536,0xFF,0x03
127.677937083333333,536,0xFF,0x00
127.778772625000002,537,0xF3,0xFF
128.145285666666666,538,0x17,0xFF
128.145312958333335,538,0x02,0xFF
128.145351041666657,538,0xFF,0xE9
128.145378625000006,538,0xFF,0x04
128.145406041666661,538,0xFF,0x00
128.246300999999988,539,0xF3,0xFF
128.612012208333340,540,0x17,0xFF
128.612039500000009,540,0x02,0xFF
128.612077541666679,540,0xFF,0xA0
128.612105000000014,540,0xFF,0x03
128.612132458333321,540,0xFF,0x00
128.712979083333323,541,0xF3,0xFF
129.078594416666675,542,0x17,0xFF
129.078621708333344,542,0x02,0xFF
129.078659791666666,542,0xFF,0x49
129.078687250000002,542,0xFF,0x03
129.078714708333337,542,0xFF,0x00
129.179536958333330,543,0xF3,0xFF
129.545058374999996,544,0x17,0xFF
129.545085666666665,544,0x02,0xFF
129.545123708333335,544,0xFF,0x1A
129.545151208333323,544,0xFF,0x03
129.545178666666658,544,0xFF,0x00
129.646045083333320,545,0xF3,0xFF
130.011509375000003,546,0x17,0xFF
130.011536624999991,546,0x02,0xFF
130.011574666666661,546,0xFF,0x84
130.011602083333344,546,0xFF,0x04
130.011629458333346,546,0xFF,0x00
130.112429041666672,547,0xF3,0xFF
130.477877583333338,548,0x17,0xFF
130.477904833333326,548,0x02,0xFF
130.477942916666677,548,0xFF,0x1C
130.477970416666665,548,0xFF,0x03
130.477997833333347,548,0xFF,0x00
130.578843250000006,549,0xF3,0xFF
130.945364708333329,550,0x17,0xFF
130.945391958333346,550,0x02,0xFF
130.945429999999988,550,0xFF,0x69
130.945457500000003,550,0xFF,0x02
130.945484875000005,550,0xFF,0x00
131.046318083333347,551,0xF3,0xFF
131.411832291666656,552,0x17,0xFF
131.411859583333325,552,0x02,0xFF
131.411897666666675,552,0xFF,0x37
131.411925208333344,552,0xFF,0x04
131.411952624999998,552,0xFF,0x00
131.512780458333339,553,0xF3,0xFF
131.878242250000000,554,0x17,0xFF
131.878269541666668,554,0x02,0xFF
131.878307624999991,554,0xFF,0xAB
131.878335208333340,554,0xFF,0x04
131.878362624999994,554,0xFF,0x00
131.979203833333344,555,0xF3,0xFF
132.345622541666671,556,0x17,0xFF
132.345649791666659,556,0x02,0xFF
132.345687833333329,556,0xFF,0x06
132.345715291666664,556,0xFF,0x05
132.345742708333347,556,0xFF,0x00
132.446598708333340,557,0xF3,0xFF
132.812122416666654,558,0x17,0xFF
132.812149666666670,558,0x02,0xFF
132.812187749999993,558,0xFF,0xE6
132.812215333333342,558,0xFF,0x03
132.812242791666677,558,0xFF,0x00
132.913089333333346,559,0xF3,0xFF
133.278547208333322,560,0x17,0xFF
133.278574458333338,560,0x02,0xFF
133.278612500000008,560,0xFF,0xF7
133.278640125000010,560,0xFF,0x03
133.278667583333345,560,0xFF,0x00
133.379488583333341,561,0xF3,0xFF
133.744853458333324,562,0x17,0xFF
133.744880749999993,562,0x02,0xFF
133.744918791666663,562,0xFF,0xD5
133.744946333333331,562,0xFF,0x03
133.744973750000014,562,0xFF,0x00
133.845774541666657,563,0xF3,0xFF
134.212232416666666,564,0x17,0xFF
134.212259666666654,564,0x02,0xFF
134.212297750000005,564,0xFF,0xDB
134.212325375000006,564,0xFF,0x03
134.212352791666660,564,0xFF,0x00
134.313215041666666,565,0xF3,0xFF
134.678757708333336,566,0x17,0xFF
134.678785000000005,566,0x02,0xFF
134.678823041666675,566,0xFF,0x24
134.678850500000010,566,0xFF,0x03
134.678877916666664,566,0xFF,0x00
134.779712499999988,567,0xF3,0xFF
135.145117208333346,568,0x17,0xFF
135.145144499999986,568,0x02,0xFF
135.145182541666657,568,0xFF,0x50
135.145209958333339,568,0xFF,0x04
135.145237374999994,568,0xFF,0x00
135.246047500000003,569,0xF3,0xFF
135.612485625000005,570,0x17,0xFF
135.612512916666674,570,0x02,0xFF
135.612550958333344,570,0xFF,0x63
135.612578458333331,570,0xFF,0x05
135.612605875000014,570,0xFF,0x00
135.713444166666676,571,0xF3,0xFF
136.078899624999991,572,0x17,0xFF
136.078926875000008,572,0x02,0xFF
136.078964916666678,572,0xFF,0x27
136.078992416666665,572,0xFF,0x03
136.079019875000000,572,0xFF,0x00
136.179826249999991,573,0xF3,0xFF
136.545310208333319,574,0x17,0xFF
136.545337458333336,574,0x02,0xFF
136.545375541666658,574,0xFF,0x81
136.545402958333341,574,0xFF,0x04
136.545430374999995,574,0xFF,0x00
136.646272000000010,575,0xF3,0xFF
137.011772666666673,576,0x17,0xFF
137.011799916666661,576,0x02,0xFF
137.011837958333331,576,0xFF,0xFB
137.011865583333332,576,0xFF,0x03
137.011892999999986,576,0xFF,0x00
137.112726291666661,577,0xF3,0xFF
137.479241250000001,578,0x17,0xFF
137.479268541666670,578,0x02,0xFF
137.479306624999992,578,0xFF,0x17
137.479334125000008,578,0xFF,0x04
137.479361500000010,578,0xFF,0x00
137.580183291666657,579,0xF3,0xFF
137.945557874999992,580,0x17,0xFF
137.945585125000008,580,0x02,0xFF
137.945623208333330,580,0xFF,0x8B
137.945650708333346,580,0xFF,0x04
137.945678083333320,580,0xFF,0x00
138.046497499999987,581,0xF3,0xFF
138.411851708333330,582,0x17,0xFF
138.411878999999999,582,0x02,0xFF
138.411917041666669,582,0xFF,0xDF
138.411944666666670,582,0xFF,0x04
138.411972041666672,582,0xFF,0x00
138.512772041666665,583,0xF3,0xFF
138.879180749999989,584,0x17,0xFF
138.879208041666658,584,0x02,0xFF
138.879246083333328,584,0xFF,0x19
138.879273541666663,584,0xFF,0x03
138.879300958333346,584,0xFF,0x00
138.980136333333320,585,0xF3,0xFF
139.345589875000002,586,0x17,0xFF
139.345617166666671,586,0x02,0xFF
139.345655249999993,586,0xFF,0x21
139.345682666666676,586,0xFF,0x03
139.345710125000011,586,0xFF,0x00
139.446560333333338,587,0xF3,0xFF
139.811939375000009,588,0x17,0xFF
139.811966666666677,588,0x02,0xFF
139.812004750000000,588,0xFF,0xF9
139.812032375000001,588,0xFF,0x02
139.812059791666655,588,0xFF,0x00
139.912903166666666,589,0xF3,0xFF
140.279408375000003,590,0x17,0xFF
140.279435624999991,590,0x02,0xFF
140.279473708333342,590,0xFF,0xF6
140.279501333333343,590,0xFF,0x01
140.279528708333345,590,0xFF,0x00
140.380370041666680,591,0xF3,0xFF
140.745790458333346,592,0x17,0xFF
140.745817749999986,592,0x02,0xFF
140.745855833333337,592,0xFF,0x20
140.745883249999991,592,0xFF,0x02
140.745910624999993,592,0xFF,0x00
140.846766874999986,593,0xF3,0xFF
141.212169708333334,594,0x17,0xFF
141.212197000000003,594,0x02,0xFF
141.212235041666673,594,0xFF,0x09
141.212262458333328,594,0xFF,0x03
141.212289875000010,594,0xFF,0x00
141.313124749999986,595,0xF3,0xFF
141.679630166666669,596,0x17,0xFF
141.679657458333338,596,0x02,0xFF
141.679695500000008,596,0xFF,0x1B
141.679723041666676,596,0xFF,0x02
141.679750416666678,596,0xFF,0x00
141.780607500000002,597,0xF3,0xFF
142.146300083333330,598,0x17,0xFF
142.146327374999998,598,0x02,0xFF
142.146365458333321,598,0xFF,0x8B
142.146392999999989,598,0xFF,0x02
142.146420416666672,598,0xFF,0x00
142.247337291666668,599,0xF3,0xFF
142.613048291666672,600,0x17,0xFF
142.613075624999993,600,0x02,0xFF
142.613113708333344,600,0xFF,0x95
142.613141250000012,600,0xFF,0x02
142.613168708333347,600,0xFF,0x00
142.714054124999990,601,0xF3,0xFF
143.079624875000007,602,0x17,0xFF
143.079652166666676,602,0x02,0xFF
143.079690208333346,602,0xFF,0x55
143.079717749999986,602,0xFF,0x02
143.079745166666669,602,0xFF,0x00
143.180600208333345,603,0xF3,0xFF
143.546139958333328,604,0x17,0xFF
143.546167208333344,604,0x02,0xFF
143.546205291666666,604,0xFF,0x5B
143.546232874999987,604,0xFF,0x03
143.546260333333322,604,0xFF,0x00
143.647096083333338,605,0xF3,0xFF
144.012620499999997,606,0x17,0xFF
144.012647791666666,606,0x02,0xFF
144.012685833333336,606,0xFF,0x5F
144.012713458333337,606,0xFF,0x03
144.012740874999992,606,0xFF,0x00
144.113607583333334,607,0xF3,0xFF
144.479164666666662,608,0x17,0xFF
144.479191916666679,608,0x02,0xFF
144.479230000000001,608,0xFF,0xF5
144.479257583333322,608,0xFF,0x02
144.479285000000004,608,0xFF,0x00
144.580147166666677,609,0xF3,0xFF
144.946571791666656,610,0x17,0xFF
144.946599083333325,610,0x02,0xFF
144.946637166666676,610,0xFF,0xBE
144.946664791666677,610,0xFF,0x02
144.946692208333332,610,0xFF,0x00
145.047571666666670,611,0xF3,0xFF
145.413291624999999,612,0x17,0xFF
145.413318916666668,612,0x02,0xFF
145.413356999999991,612,0xFF,0x58
145.413384500000006,612,0xFF,0x03
145.413411958333342,612,0xFF,0x00
145.514315624999995,613,0xF3,0xFF
145.879989541666674,614,0x17,0xFF
145.880016833333343,614,0x02,0xFF
145.880054916666666,614,0xFF,0xBC
145.880082458333334,614,0xFF,0x02
145.880109874999988,614,0xFF,0x00
145.980994541666661,615,0xF3,0xFF
146.346632000000000,616,0x17,0xFF
146.346659333333321,616,0x02,0xFF
146.346697416666672,616,0xFF,0x99
146.346724958333340,616,0xFF,0x02
146.346752374999994,616,0xFF,0x00
146.447657583333324,617,0xF3,0xFF
146.813242666666667,618,0x17,0xFF
146.813269958333336,618,0x02,0xFF
146.813308041666659,618,0xFF,0x31
146.813335541666675,618,0xFF,0x04
146.813362958333329,618,0xFF,0x00
146.914251333333340,619,0xF3,0xFF
147.279778083333326,620,0x17,0xFF
147.279805374999995,620,0x02,0xFF
147.279843416666665,620,0xFF,0x61
147.279870875000000,620,0xFF,0x04
147.279898291666655,620,0xFF,0x00
147.380778708333338,621,0xF3,0xFF
147.746355541666674,622,0x17,0xFF
147.746382833333342,622,0x02,0xFF
147.746420916666665,622,0xFF,0x16
147.746448375000000,622,0xFF,0x03
147.746475791666654,622,0xFF,0x00
147.847311666666656,623,0xF3,0xFF
148.212931999999995,624,0x17,0xFF
148.212959291666664,624,0x02,0xFF
148.212997374999986,624,0xFF,0xA6
148.213024875000002,624,0xFF,0x04
148.213052291666656,624,0xFF,0x00
148.313952041666653,625,0xF3,0xFF
148.679414416666674,626,0x17,0xFF
148.679441708333343,626,0x02,0xFF
148.679479791666665,626,0xFF,0x89
148.679507291666653,626,0xFF,0x04
148.679534666666655,626,0xFF,0x00
148.780406916666664,627,0xF3,0xFF
149.146024250000011,628,0x17,0xFF
149.146051541666679,628,0x02,0xFF
149.146089625000002,628,0xFF,0xF9
149.146117208333322,628,0xFF,0x04
149.146144625000005,628,0xFF,0x00
149.247001916666676,629,0xF3,0xFF
149.613599499999992,630,0x17,0xFF
149.613626791666661,630,0x02,0xFF
149.613664833333331,630,0xFF,0xA0
149.613692291666666,630,0xFF,0x04
149.613719708333321,630,0xFF,0x00
149.714579791666665,631,0xF3,0xFF
150.080080083333343,632,0x17,0xFF
150.080107375000011,632,0x02,0xFF
150.080145458333334,632,0xFF,0xC2
150.080172958333321,632,0xFF,0x03
150.080200375000004,632,0xFF,0x00
150.181048208333323,633,0xF3,0xFF
150.546594791666678,634,0x17,0xFF
150.546622041666666,634,0x02,0xFF
150.546660124999988,634,0xFF,0x1F
150.546687666666656,634,0xFF,0x04
150.546715083333339,634,0xFF,0x00
150.647547000000003,635,0xF3,0xFF
151.012927041666671,636,0x17,0xFF
151.012954333333340,636,0x02,0xFF
151.012992375000010,636,0xFF,0x0B
151.013019833333345,636,0xFF,0x04
151.013047208333347,636,0xFF,0x00
151.113832541666653,637,0xF3,0xFF
151.480069541666666,638,0x17,0xFF
151.480096833333334,638,0x02,0xFF
151.480134875000005,638,0xFF,0x1E
151.480162374999992,638,0xFF,0x04
151.480189791666675,638,0xFF,0x00
151.580993124999992,639,0xF3,0xFF
151.946424958333324,640,0x17,0xFF
151.946452208333341,640,0x02,0xFF
151.946490291666663,640,0xFF,0x62
151.946517749999998,640,0xFF,0x04
151.946545166666681,640,0xFF,0x00
152.047368500000005,641,0xF3,0xFF
152.413804416666665,642,0x17,0xFF
152.413831708333333,642,0x02,0xFF
152.413869791666656,642,0xFF,0xF2
152.413897333333324,642,0xFF,0x03
152.413924791666659,642,0xFF,0x00
152.514791083333336,643,0xF3,0xFF
152.880271791666672,644,0x17,0xFF
152.880299083333341,644,0x02,0xFF
152.880337166666664,644,0xFF,0xFD
152.880364791666665,644,0xFF,0x03
152.880392250000000,644,0xFF,0x00
152.981191208333343,645,0xF3,0xFF
153.346624291666672,646,0x17,0xFF
153.346651583333340,646,0x02,0xFF
153.346689708333344,646,0xFF,0x3E
153.346717291666664,646,0xFF,0x04
153.346744708333347,646,0xFF,0x00
153.447628583333341,647,0xF3,0xFF
153.813222291666676,648,0x17,0xFF
153.813249583333345,648,0x02,0xFF
153.813287666666668,648,0xFF,0xA2
153.813315125000003,648,0xFF,0x04
153.813342541666657,648,0xFF,0x00
153.914161374999992,649,0xF3,0xFF
154.280670458333333,650,0x17,0xFF
154.280697750000002,650,0x02,0xFF
154.280735791666672,650,0xFF,0xDA
154.280763333333340,650,0xFF,0x03
154.280790791666675,650,0xFF,0x00
154.381611249999992,651,0xF3,0xFF
154.747153208333344,652,0x17,0xFF
154.747180500000013,652,0x02,0xFF
154.747218583333336,652,0xFF,0xF1
154.747246166666656,652,0xFF,0x02
154.747273583333339,652,0xFF,0x00
154.848125000000010,653,0xF3,0xFF
155.213534374999995,654,0x17,0xFF
155.213561625000011,654,0x02,0xFF
155.213599708333334,654,0xFF,0x99
155.213627208333321,654,0xFF,0x03
155.213654666666656,654,0xFF,0x00
155.314458124999987,655,0xF3,0xFF
155.679914749999995,656,0x17,0xFF
155.679942041666663,656,0x02,0xFF
155.679980083333334,656,0xFF,0x06
155.680007541666669,656,0xFF,0x02
155.680034916666671,656,0xFF,0x00
155.780877500000003,657,0xF3,0xFF
156.147386458333330,658,0x17,0xFF
156.147413749999998,658,0x02,0xFF
156.147451833333321,658,0xFF,0xA0
156.147479291666656,658,0xFF,0x02
156.147506708333339,658,0xFF,0x00
156.248356708333347,659,0xF3,0xFF
156.613867749999997,660,0x17,0xFF
156.613895041666666,660,0x02,0xFF
156.613933083333336,660,0xFF,0x75
156.613960666666657,660,0xFF,0x04
156.613988083333339,660,0xFF,0x00
156.714836749999989,661,0xF3,0xFF
157.080398874999986,662,0x17,0xFF
157.080426166666655,662,0x02,0xFF
157.080464250000006,662,0xFF,0xCD
157.080491833333326,662,0xFF,0x03
157.080519250000009,662,0xFF,0x00
157.181339458333326,663,0xF3,0xFF
157.546828041666657,664,0x17,0xFF
157.546855291666674,664,0x02,0xFF
157.546893333333344,664,0xFF,0xB1
157.546920875000012,664,0xFF,0x03
157.546948333333347,664,0xFF,0x00
157.647785499999998,665,0xF3,0xFF
158.013394333333338,666,0x17,0xFF
158.013421583333326,666,0x02,0xFF
158.013459666666677,666,0xFF,0x7D
158.013487249999997,666,0xFF,0x03
158.013514708333332,666,0xFF,0x00
158.114337291666658,667,0xF3,0xFF
158.480900291666671,668,0x17,0xFF
158.480927624999993,668,0x02,0xFF
158.480965708333343,668,0xFF,0x83
158.480993208333331,668,0xFF,0x03
158.481020666666666,668,0xFF,0x00
158.581894208333324,669,0xF3,0xFF
158.947479416666653,670,0x17,0xFF
158.947506708333322,670,0x02,0xFF
158.947544833333325,670,0xFF,0xBD
158.947572458333326,670,0xFF,0x04
158.947599916666661,670,0xFF,0x00
159.048490041666668,671,0xF3,0xFF
159.414077333333324,672,0x17,0xFF
159.414104624999993,672,0x02,0xFF
159.414142666666663,672,0xFF,0xEB
159.414170291666665,672,0xFF,0x03
159.414197708333347,672,0xFF,0x00
159.515026041666658,673,0xF3,0xFF
159.880481333333336,674,0x17,0xFF
159.880508625000004,674,0x02,0xFF
159.880546750000008,674,0xFF,0xFE
159.880574375000009,674,0xFF,0x03
159.880601833333344,674,0xFF,0x00
159.981478916666674,675,0xF3,0xFF
160.346984999999989,676,0x17,0xFF
160.347012291666658,676,0x02,0xFF
160.347050375000009,676,0xFF,0xBC
160.347077916666677,676,0xFF,0x04
160.347105333333332,676,0xFF,0x00
160.447938625000006,677,0xF3,0xFF
160.814398041666664,678,0x17,0xFF
160.814425291666680,678,0x02,0xFF
160.814463333333322,678,0xFF,0xC7
160.814490874999990,678,0xFF,0x02
160.814518291666673,678,0xFF,0x00
160.915357625000013,679,0xF3,0xFF
161.280774624999992,680,0x17,0xFF
161.280801875000009,680,0x02,0xFF
161.280839958333331,680,0xFF,0x07
161.280867416666666,680,0xFF,0x03
161.280894875000001,680,0xFF,0x00
161.381720374999986,681,0xF3,0xFF
161.747095416666667,682,0x17,0xFF
161.747122708333336,682,0x02,0xFF
161.747160750000006,682,0xFF,0x83
161.747188249999994,682,0xFF,0x03
161.747215708333329,682,0xFF,0x00
161.848045666666678,683,0xF3,0xFF
162.214432583333320,684,0x17,0xFF
162.214459874999989,684,0x02,0xFF
162.214497958333340,684,0xFF,0xC2
162.214525416666675,684,0xFF,0x04
162.214552833333329,684,0xFF,0x00
162.315354750000012,685,0xF3,0xFF
162.680791375000013,686,0x17,0xFF
162.680818666666653,686,0x02,0xFF
162.680856708333323,686,0xFF,0x9A
162.680884208333339,686,0xFF,0x04
162.680911624999993,686,0xFF,0x00
162.781709916666671,687,0xF3,0xFF
163.147088083333330,688,0x17,0xFF
163.147115333333346,688,0x02,0xFF
163.147153374999988,688,0xFF,0x7D
163.147180958333337,688,0xFF,0x03
163.147208374999991,688,0xFF,0x00
163.248023999999987,689,0xF3,0xFF
163.614381624999993,690,0x17,0xFF
163.614408916666662,690,0x02,0xFF
163.614446958333332,690,0xFF,0x23
163.614474416666667,690,0xFF,0x04
163.614501791666669,690,0xFF,0x00
163.715336916666672,691,0xF3,0xFF
164.080798625000000,692,0x17,0xFF
164.080825916666669,692,0x02,0xFF
164.080863999999991,692,0xFF,0xD5
164.080891583333340,692,0xFF,0x03
164.080918999999994,692,0xFF,0x00
164.181770458333347,693,0xF3,0xFF
164.547254666666674,694,0x17,0xFF
164.547281958333343,694,0x02,0xFF
164.547320041666666,694,0xFF,0xE9
164.547347624999986,694,0xFF,0x02
164.547374999999988,694,0xFF,0x00
164.648221166666673,695,0xF3,0xFF
165.014672125000004,696,0x17,0xFF
165.014699374999992,696,0x02,0xFF
165.014737458333343,696,0xFF,0x29
165.014764916666678,696,0xFF,0x03
165.014792375000013,696,0xFF,0x00
165.115632916666669,697,0xF3,0xFF
165.481171541666669,698,0x17,0xFF
165.481198833333337,698,0x02,0xFF
165.481236875000008,698,0xFF,0xD4
165.481264374999995,698,0xFF,0x03
165.481291833333330,698,0xFF,0x00
165.582179749999995,699,0xF3,0xFF
165.947658208333337,700,0x17,0xFF
165.947685500000006,700,0x02,0xFF
165.947723583333328,700,0xFF,0xAD
165.947751166666677,700,0xFF,0x03
165.947778583333331,700,0xFF,0x00
166.048619791666653,701,0xF3,0xFF
166.414086625000010,702,0x17,0xFF
166.414113874999998,702,0x02,0xFF
166.414151958333321,702,0xFF,0x74
166.414179458333336,702,0xFF,0x04
166.414206833333338,702,0xFF,0x00
166.515030999999993,703,0xF3,0xFF
166.881314500000002,704,0x17,0xFF
166.881341791666671,704,0x02,0xFF
166.881379833333341,704,0xFF,0xCB
166.881407375000009,704,0xFF,0x03
166.881434791666663,704,0xFF,0x00
166.982227708333340,705,0xF3,0xFF
167.347565208333322,706,0x17,0xFF
167.347592499999990,706,0x02,0xFF
167.347630541666661,706,0xFF,0x2C
167.347657999999996,706,0xFF,0x04
167.347685416666678,706,0xFF,0x00
167.448508916666668,707,0xF3,0xFF
167.815018791666660,708,0x17,0xFF
167.815046083333328,708,0x02,0xFF
167.815084166666679,708,0xFF,0x7C
167.815111750000000,708,0xFF,0x04
167.815139125000002,708,0xFF,0x00
167.915959666666680,709,0xF3,0xFF
168.281430708333346,710,0x17,0xFF
168.281457958333334,710,0x02,0xFF
168.281496041666657,710,0xFF,0x67
168.281523583333325,710,0xFF,0x04
168.281550958333327,710,0xFF,0x00
168.382388666666657,711,0xF3,0xFF
168.747787749999986,712,0x17,0xFF
168.747815041666655,712,0x02,0xFF
168.747853083333325,712,0xFF,0xF8
168.747880666666674,712,0xFF,0x03
168.747908083333328,712,0xFF,0x00
168.848734291666659,713,0xF3,0xFF
169.215299874999999,714,0x17,0xFF
169.215327166666668,714,0x02,0xFF
169.215365291666672,714,0xFF,0x89
169.215392791666659,714,0xFF,0x03
169.215420249999994,714,0xFF,0x00
169.316325250000006,715,0xF3,0xFF
169.681812833333339,716,0x17,0xFF
169.681840083333327,716,0x02,0xFF
169.681878166666678,716,0xFF,0x3A
169.681905708333346,716,0xFF,0x02
169.681933125000000,716,0xFF,0x00
169.782797375000001,717,0xF3,0xFF
170.148320250000012,718,0x17,0xFF
170.148347541666681,718,0x02,0xFF
170.148385625000003,718,0xFF,0xA0
170.148413083333338,718,0xFF,0x02
170.148440499999992,718,0xFF,0x00
170.249318666666653,719,0xF3,0xFF
170.614858958333343,720,0x17,0xFF
170.614886250000012,720,0x02,0xFF
170.614924333333335,720,0xFF,0x04
170.614951708333336,720,0xFF,0x03
170.614979166666672,720,0xFF,0x00
170.715827791666669,721,0xF3,0xFF
171.081335458333342,722,0x17,0xFF
171.081362750000011,722,0x02,0xFF
171.081400833333333,722,0xFF,0xFD
171.081428458333335,722,0xFF,0x02
171.081455874999989,722,0xFF,0x00
171.182303166666657,723,0xF3,0xFF
171.547828124999995,724,0x17,0xFF
171.547855416666664,724,0x02,0xFF
171.547893499999986,724,0xFF,0x31
171.547920958333322,724,0xFF,0x03
171.547948416666657,724,0xFF,0x00
171.648794166666676,725,0xF3,0xFF
172.015373833333342,726,0x17,0xFF
172.015401125000011,726,0x02,0xFF
172.015439166666653,726,0xFF,0x88
172.015466624999988,726,0xFF,0x02
172.015494041666670,726,0xFF,0x00
172.116333666666662,727,0xF3,0xFF
172.481806416666672,728,0x17,0xFF
172.481833666666660,728,0x02,0xFF
172.481871750000010,728,0xFF,0xF7
172.481899375000012,728,0xFF,0x02
172.481926791666666,728,0xFF,0x00
172.582765208333342,729,0xF3,0xFF
172.948209083333325,730,0x17,0xFF
172.948236374999993,730,0x02,0xFF
172.948274416666663,730,0xFF,0x59
172.948301958333332,730,0xFF,0x03
172.948329374999986,730,0xFF,0x00
173.049171875000013,731,0xF3,0xFF
173.414648625000012,732,0x17,0xFF
173.414675916666653,732,0x02,0xFF
173.414714041666656,732,0xFF,0xA6
173.414741583333324,732,0xFF,0x03
173.414769041666659,732,0xFF,0x00
173.515651708333337,733,0xF3,0xFF
173.882244541666665,734,0x17,0xFF
173.882271791666653,734,0x02,0xFF
173.882309875000004,734,0xFF,0x38
173.882337333333339,734,0xFF,0x03
173.882364791666674,734,0xFF,0x00
173.983238583333332,735,0xF3,0xFF
174.348785375000006,736,0x17,0xFF
174.348812666666674,736,0x02,0xFF
174.348850708333345,736,0xFF,0x67
174.348878250000013,736,0xFF,0x04
174.348905666666667,736,0xFF,0x00
174.449749125000011,737,0xF3,0xFF
174.815206708333335,738,0x17,0xFF
174.815234000000004,738,0x02,0xFF
174.815272083333326,738,0xFF,0x72
174.815299624999994,738,0xFF,0x05
174.815327041666677,738,0xFF,0x00
174.916173791666665,739,0xF3,0xFF
175.281801500000000,740,0x17,0xFF
175.281828791666669,740,0x02,0xFF
175.281866916666672,740,0xFF,0x50
175.281894375000007,740,0xFF,0x05
175.281921833333342,740,0xFF,0x00
175.382809416666674,741,0xF3,0xFF
175.748407624999999,742,0x17,0xFF
175.748434916666668,742,0x02,0xFF
175.748472999999990,742,0xFF,0x60
175.748500458333325,742,0xFF,0x03
175.748527875000008,742,0xFF,0x00
175.849399416666671,743,0xF3,0xFF
176.214937916666656,744,0x17,0xFF
176.214965208333325,744,0x02,0xFF
176.215003291666676,744,0xFF,0x3B
176.215030833333344,744,0xFF,0x04
176.215058249999998,744,0xFF,0x00
176.315902916666658,745,0xF3,0xFF
176.682467791666653,746,0x17,0xFF
176.682495083333322,746,0x02,0xFF
176.682533166666673,746,0xFF,0x05
176.682560625000008,746,0xFF,0x03
176.682588083333343,746,0xFF,0x00
176.783494541666670,747,0xF3,0xFF
177.149129125000002,748,0x17,0xFF
177.149156374999990,748,0x02,0xFF
177.149194458333341,748,0xFF,0xA9
177.149222000000009,748,0xFF,0x02
177.149249416666663,748,0xFF,0x00
177.250121791666658,749,0xF3,0xFF
177.615795666666656,750,0x17,0xFF
177.615822958333325,750,0x02,0xFF
177.615861083333328,750,0xFF,0x96
177.615888624999997,750,0xFF,0x01
177.615916041666679,750,0xFF,0x00
177.716833416666674,751,0xF3,0xFF
178.082627708333320,752,0x17,0xFF
178.082654999999988,752,0x02,0xFF
178.082693083333339,752,0xFF,0x57
178.082720625000007,752,0xFF,0x04
178.082748041666662,752,0xFF,0x00
178.183622166666680,753,0xF3,0xFF
178.549245666666678,754,0x17,0xFF
178.549272958333347,754,0x02,0xFF
178.549311041666670,754,0xFF,0x37
178.549338624999990,754,0xFF,0x05
178.549366083333325,754,0xFF,0x00
178.650224958333325,755,0xF3,0xFF
179.015708708333335,756,0x17,0xFF
179.015735958333323,756,0x02,0xFF
179.015773999999993,756,0xFF,0xED
179.015801624999995,756,0xFF,0x02
179.015828999999997,756,0xFF,0x00
179.116682541666677,757,0xF3,0xFF
179.482235000000003,758,0x17,0xFF
179.482262291666672,758,0x02,0xFF
179.482300374999994,758,0xFF,0x06
179.482327833333329,758,0xFF,0x02
179.482355250000012,758,0xFF,0x00
179.583206041666671,759,0xF3,0xFF
179.948777500000006,760,0x17,0xFF
179.948804833333327,760,0x02,0xFF
179.948842916666678,760,0xFF,0xD9
179.948870458333346,760,0xFF,0x02
179.948897875000000,760,0xFF,0x00
180.049764291666662,761,0xF3,0xFF
180.415415999999993,762,0x17,0xFF
180.415443291666662,762,0x02,0xFF
180.415481416666665,762,0xFF,0x1B
180.415508958333334,762,0xFF,0x03
180.415536416666669,762,0xFF,0x00
180.516415541666674,763,0xF3,0xFF
180.882022708333324,764,0x17,0xFF
180.882049999999992,764,0x02,0xFF
180.882088083333343,764,0xFF,0x25
180.882115541666678,764,0xFF,0x04
180.882142958333333,764,0xFF,0x00
180.982990000000001,765,0xF3,0xFF
181.349524541666653,766,0x17,0xFF
181.349551833333322,766,0x02,0xFF
181.349589916666673,766,0xFF,0x41
181.349617333333327,766,0xFF,0x05
181.349644791666663,766,0xFF,0x00
181.450489833333336,767,0xF3,0xFF
181.815993416666657,768,0x17,0xFF
181.816020666666674,768,0x02,0xFF
181.816058749999996,768,0xFF,0xF5
181.816086333333345,768,0xFF,0x03
181.816113750000000,768,0xFF,0x00
181.916982791666669,769,0xF3,0xFF
182.282581833333325,770,0x17,0xFF
182.282609124999993,770,0x02,0xFF
182.282647208333344,770,0xFF,0x72
182.282674750000012,770,0xFF,0x04
182.282702124999986,770,0xFF,0x00
182.383590083333331,771,0xF3,0xFF
182.749311000000006,772,0x17,0xFF
182.749338291666675,772,0x02,0xFF
182.749376374999997,772,0xFF,0x01
182.749403791666680,772,0xFF,0x04
182.749431208333334,772,0xFF,0x00
182.850315416666660,773,0xF3,0xFF
183.215899750000005,774,0x17,0xFF
183.215927041666674,774,0x02,0xFF
183.215965124999997,774,0xFF,0x88
183.215992541666679,774,0xFF,0x03
183.216019999999986,774,0xFF,0x00
183.316874583333345,775,0xF3,0xFF
183.682462541666666,776,0x17,0xFF
183.682489833333335,776,0x02,0xFF
183.682527916666658,776,0xFF,0x4D
183.682555458333326,776,0xFF,0x04
183.682582875000008,776,0xFF,0x00
183.783435916666662,777,0xF3,0xFF
184.149055458333322,778,0x17,0xFF
184.149082749999991,778,0x02,0xFF
184.149120791666661,778,0xFF,0x2B
184.149148333333329,778,0xFF,0x02
184.149175750000012,778,0xFF,0x00
184.250051124999999,779,0xF3,0xFF
184.615637208333339,780,0x17,0xFF
184.615664458333328,780,0x02,0xFF
184.615702541666678,780,0xFF,0x18
184.615729958333333,780,0xFF,0x03
184.615757416666668,780,0xFF,0x00
184.716590125000010,781,0xF3,0xFF
185.083183125000005,782,0x17,0xFF
185.083210416666674,782,0x02,0xFF
185.083248458333344,782,0xFF,0xD0
185.083275958333331,782,0xFF,0x02
185.083303333333333,782,0xFF,0x00
185.184157125000013,783,0xF3,0xFF
185.549826333333328,784,0x17,0xFF
185.549853666666678,784,0x02,0xFF
185.549891750000000,784,0xFF,0x89
185.549919249999988,784,0xFF,0x02
185.549946666666671,784,0xFF,0x00
185.650890083333337,785,0xF3,0xFF
186.016611500000010,786,0x17,0xFF
186.016638791666679,786,0x02,0xFF
186.016676833333321,786,0xFF,0x53
186.016704333333337,786,0xFF,0x02
186.016731749999991,786,0xFF,0x00
186.117570708333346,787,0xF3,0xFF
186.483210333333346,788,0x17,0xFF
186.483237624999987,788,0x02,0xFF
186.483275666666657,788,0xFF,0x4A
186.483303166666673,788,0xFF,0x04
186.483330541666675,788,0xFF,0x00
186.584211750000009,789,0xF3,0xFF
186.949791250000004,790,0x17,0xFF
186.949818541666673,790,0x02,0xFF
186.949856624999995,790,0xFF,0xFC
186.949884208333344,790,0xFF,0x02
186.949911583333346,790,0xFF,0x00
187.050763208333336,791,0xF3,0xFF
187.416314125000014,792,0x17,0xFF
187.416341416666654,792,0x02,0xFF
187.416379458333324,792,0xFF,0x05
187.416406916666659,792,0xFF,0x03
187.416434374999994,792,0xFF,0x00
187.517310374999994,793,0xF3,0xFF
187.882833541666656,794,0x17,0xFF
187.882860833333325,794,0x02,0xFF
187.882898874999995,794,0xFF,0xE4
187.882926416666663,794,0xFF,0x03
187.882953833333346,794,0xFF,0x00
187.983797541666661,795,0xF3,0xFF
188.349429291666667,796,0x17,0xFF
188.349456583333335,796,0x02,0xFF
188.349494666666658,796,0xFF,0xC5
188.349522208333326,796,0xFF,0x03
188.349549666666661,796,0xFF,0x00
188.450422916666668,797,0xF3,0xFF
188.816121333333342,798,0x17,0xFF
188.816148625000011,798,0x02,0xFF
188.816186750000014,798,0xFF,0x96
188.816214291666654,798,0xFF,0x04
188.816241749999989,798,0xFF,0x00
188.917110291666660,799,0xF3,0xFF
189.282680625000012,800,0x17,0xFF
189.282707916666681,800,0x02,0xFF
189.282746000000003,800,0xFF,0x14
189.282773458333338,800,0xFF,0x04
189.282800874999992,800,0xFF,0x00
189.383674041666666,801,0xF3,0xFF
189.749306083333323,802,0x17,0xFF
189.749333374999992,802,0x02,0xFF
189.749371416666662,802,0xFF,0x02
189.749398791666664,802,0xFF,0x04
189.749426208333347,802,0xFF,0x00
189.850292916666660,803,0xF3,0xFF
190.216744374999990,804,0x17,0xFF
190.216771666666659,804,0x02,0xFF
190.216809750000010,804,0xFF,0xD4
190.216837249999998,804,0xFF,0x04
190.216864666666680,804,0xFF,0x00
190.317697333333342,805,0xF3,0xFF
190.683153708333322,806,0x17,0xFF
190.683180999999990,806,0x02,0xFF
190.683219083333341,806,0xFF,0x99
190.683246583333329,806,0xFF,0x03
190.683274041666664,806,0xFF,0x00
190.784110041666679,807,0xF3,0xFF
191.149537041666662,808,0x17,0xFF
191.149564291666678,808,0x02,0xFF
191.149602375000001,808,0xFF,0x8D
191.149629874999988,808,0xFF,0x03
191.149657291666671,808,0xFF,0x00
191.250489875000000,809,0xF3,0xFF
191.616963166666665,810,0x17,0xFF
191.616990458333333,810,0x02,0xFF
191.617028541666656,810,0xFF,0xE3
191.617056083333324,810,0xFF,0x03
191.617083541666659,810,0xFF,0x00
191.717948500000006,811,0xF3,0xFF
192.083480333333341,812,0x17,0xFF
192.083507583333329,812,0x02,0xFF
192.083545624999999,812,0xFF,0xDB
192.083573250000001,812,0xFF,0x03
192.083600666666655,812,0xFF,0x00
192.184438749999998,813,0xF3,0xFF
192.549975666666654,814,0x17,0xFF
192.550002958333323,814,0x02,0xFF
192.550041041666674,814,0xFF,0x7E
192.550068624999994,814,0xFF,0x03
192.550096083333329,814,0xFF,0x00
192.650927125000010,815,0xF3,0xFF
193.016317333333348,816,0x17,0xFF
193.016344583333336,816,0x02,0xFF
193.016382625000006,816,0xFF,0x17
193.016410124999993,816,0xFF,0x03
193.016437583333328,816,0xFF,0x00
193.117236666666656,817,0xF3,0xFF
193.483767291666680,818,0x17,0xFF
193.483794583333321,818,0x02,0xFF
193.483832666666672,818,0xFF,0xC9
193.483860166666659,818,0xFF,0x03
193.483887624999994,818,0xFF,0x00
193.584711625000011,819,0xF3,0xFF
193.950175958333347,820,0x17,0xFF
193.950203249999987,820,0x02,0xFF
193.950241333333338,820,0xFF,0xFF
193.950269041666672,820,0xFF,0x02
193.950296458333327,820,0xFF,0x00
194.051159000000013,821,0xF3,0xFF
194.416715958333327,822,0x17,0xFF
194.416743208333344,822,0x02,0xFF
194.416781291666666,822,0xFF,0xEC
194.416808833333334,822,0xFF,0x03
194.416836249999989,822,0xFF,0x00
194.517696541666680,823,0xF3,0xFF
194.883191583333343,824,0x17,0xFF
194.883218875000011,824,0x02,0xFF
194.883256958333334,824,0xFF,0x9A
194.883284500000002,824,0xFF,0x04
194.883311916666656,824,0xFF,0x00
194.984165458333337,825,0xF3,0xFF
195.350616083333335,826,0x17,0xFF
195.350643375000004,826,0x02,0xFF
195.350681458333327,826,0xFF,0x81
195.350708875000009,826,0xFF,0x04
195.350736291666664,826,0xFF,0x00
195.451562708333341,827,0xF3,0xFF
195.817068374999991,828,0x17,0xFF
195.817095666666660,828,0x02,0xFF
195.817133750000011,828,0xFF,0x79
195.817161291666679,828,0xFF,0x04
195.817188708333333,828,0xFF,0x00
195.918020416666678,829,0xF3,0xFF
196.283526625000007,830,0x17,0xFF
196.283553916666676,830,0x02,0xFF
196.283591999999999,830,0xFF,0xE5
196.283619583333319,830,0xFF,0x04
196.283647000000002,830,0xFF,0x00
196.384489750000000,831,0xF3,0xFF
196.749980916666658,832,0x17,0xFF
196.750008208333327,832,0x02,0xFF
196.750046249999997,832,0xFF,0x9A
196.750073791666665,832,0xFF,0x04
196.750101166666667,832,0xFF,0x00
196.850930291666657,833,0xF3,0xFF
197.217443291666655,834,0x17,0xFF
197.217470583333323,834,0x02,0xFF
197.217508666666674,834,0xFF,0x98
197.217536166666662,834,0xFF,0x02
197.217563541666664,834,0xFF,0x00
197.318421875000013,835,0xF3,0xFF
197.683912499999991,836,0x17,0xFF
197.683939750000008,836,0x02,0xFF
197.683977833333330,836,0xFF,0x58
197.684005291666665,836,0xFF,0x03
197.684032708333319,836,0xFF,0x00
197.784863291666653,837,0xF3,0xFF
198.150395833333334,838,0x17,0xFF
198.150423125000003,838,0x02,0xFF
198.150461208333326,838,0xFF,0xA5
198.150488708333341,838,0xFF,0x03
198.150516166666677,838,0xFF,0x00
198.251395708333320,839,0xF3,0xFF
198.616952875000010,840,0x17,0xFF
198.616980124999998,840,0x02,0xFF
198.617018208333320,840,0xFF,0x68
198.617045708333336,840,0xFF,0x02
198.617073124999990,840,0xFF,0x00
198.717900791666665,841,0xF3,0xFF
199.083411000000012,842,0x17,0xFF
199.083438291666653,842,0x02,0xFF
199.083476375000004,842,0xFF,0x55
199.083503916666672,842,0xFF,0x02
199.083531333333326,842,0xFF,0x00
199.184390333333340,843,0xF3,0xFF
199.550998875000005,844,0x17,0xFF
199.551026208333326,844,0x02,0xFF
199.551064291666677,844,0xFF,0xFE
199.551091958333330,844,0xFF,0x02
199.551119375000013,844,0xFF,0x00
199.651989666666680,845,0xF3,0xFF
200.017432000000014,846,0x17,0xFF
200.017459250000002,846,0x02,0xFF
200.017497333333324,846,0xFF,0xFF
200.017525041666659,846,0xFF,0x02
200.017552416666661,846,0xFF,0x00
200.118367874999990,847,0xF3,0xFF
200.483708833333338,848,0x17,0xFF
200.483736125000007,848,0x02,0xFF
200.483774166666677,848,0xFF,0x60
200.483801625000012,848,0xFF,0x02
200.483829041666667,848,0xFF,0x00
200.584633125000011,849,0xF3,0xFF
200.951001458333337,850,0x17,0xFF
200.951028708333325,850,0x02,0xFF
200.951066749999995,850,0xFF,0xF5
200.951094333333344,850,0xFF,0x01
200.951121708333346,850,0xFF,0x00
201.051916750000004,851,0xF3,0xFF
201.417204749999996,852,0x17,0xFF
201.417232000000013,852,0x02,0xFF
201.417270041666654,852,0xFF,0x8E
201.417297583333323,852,0xFF,0x03
201.417325000000005,852,0xFF,0x00
201.518127833333324,853,0xF3,0xFF
201.884327124999999,854,0x17,0xFF
201.884354374999987,854,0x02,0xFF
201.884392458333338,854,0xFF,0x80
201.884419833333340,854,0xFF,0x03
201.884447249999994,854,0xFF,0x00
201.985242458333346,855,0xF3,0xFF
202.350545624999995,856,0x17,0xFF
202.350572875000012,856,0x02,0xFF
202.350610916666653,856,0xFF,0x18
202.350638291666655,856,0xFF,0x02
202.350665666666657,856,0xFF,0x00
202.451444416666675,857,0xF3,0xFF
202.817876250000012,858,0x17,0xFF
202.817903541666681,858,0x02,0xFF
202.817941625000003,858,0xFF,0x11
202.817969041666657,858,0xFF,0x03
202.817996499999992,858,0xFF,0x00
202.918836791666678,859,0xF3,0xFF
203.284233208333347,860,0x17,0xFF
203.284260499999988,860,0x02,0xFF
203.284298541666658,860,0xFF,0x93
203.284326083333326,860,0xFF,0x04
203.284353458333328,860,0xFF,0x00
203.385147625000002,861,0xF3,0xFF
203.750489499999986,862,0x17,0xFF
203.750516791666655,862,0x02,0xFF
203.750554833333325,862,0xFF,0x7F
203.750582458333326,862,0xFF,0x04
203.750609833333328,862,0xFF,0x00
203.851417083333331,863,0xF3,0xFF
204.217714000000001,864,0x17,0xFF
204.217741249999989,864,0x02,0xFF
204.217779333333340,864,0xFF,0xF3
204.217806916666660,864,0xFF,0x04
204.217834333333343,864,0xFF,0x00
204.318659458333343,865,0xF3,0xFF
204.684184125000002,866,0x17,0xFF
204.684211416666670,866,0x02,0xFF
204.684249499999993,866,0xFF,0x0C
204.684276916666676,866,0xFF,0x04
204.684304333333330,866,0xFF,0x00
204.785149749999988,867,0xF3,0xFF
205.150582166666680,868,0x17,0xFF
205.150609458333321,868,0x02,0xFF
205.150647541666672,868,0xFF,0xF9
205.150675166666673,868,0xFF,0x03
205.150702625000008,868,0xFF,0x00
205.251536458333334,869,0xF3,0xFF
205.617933416666659,870,0x17,0xFF
205.617960708333328,870,0x02,0xFF
205.617998791666679,870,0xFF,0x79
205.618026333333347,870,0xFF,0x02
205.618053750000001,870,0xFF,0x00
205.718908083333332,871,0xF3,0xFF
206.084491750000012,872,0x17,0xFF
206.084519083333333,872,0x02,0xFF
206.084557166666656,872,0xFF,0xE5
206.084584750000005,872,0xFF,0x02
206.084612166666659,872,0xFF,0x00
206.185463583333330,873,0xF3,0xFF
206.551074458333346,874,0x17,0xFF
206.551101749999987,874,0x02,0xFF
206.551139833333337,874,0xFF,0xE4
206.551167375000006,874,0xFF,0x03
206.551194874999993,874,0xFF,0x00
206.652040458333346,875,0xF3,0xFF
207.017442041666669,876,0x17,0xFF
207.017469291666657,876,0x02,0xFF
207.017507375000008,876,0xFF,0xC8
207.017534833333343,876,0xFF,0x02
207.017562208333345,876,0xFF,0x00
207.118377666666674,877,0xF3,0xFF
207.484788124999994,878,0x17,0xFF
207.484815416666663,878,0x02,0xFF
207.484853458333333,878,0xFF,0x6C
207.484881000000001,878,0xFF,0x03
207.484908416666656,878,0xFF,0x00
207.585700874999986,879,0xF3,0xFF
207.951039666666674,880,0x17,0xFF
207.951066958333342,880,0x02,0xFF
207.951105041666665,880,0xFF,0x79
207.951132625000014,880,0xFF,0x03
207.951160041666668,880,0xFF,0x00
208.051991916666680,881,0xF3,0xFF
208.417485625000012,882,0x17,0xFF
208.417512875000000,882,0x02,0xFF
208.417550958333322,882,0xFF,0x24
208.417578416666657,882,0xFF,0x05
208.417605874999992,882,0xFF,0x00
208.518470374999993,883,0xF3,0xFF
208.885048333333344,884,0x17,0xFF
208.885075625000013,884,0x02,0xFF
208.885113666666655,884,0xFF,0x88
208.885141083333338,884,0xFF,0x03
208.885168541666673,884,0xFF,0x00
208.986018625000014,885,0xF3,0xFF
209.351578666666654,886,0x17,0xFF
209.351605916666671,886,0x02,0xFF
209.351643999999993,886,0xFF,0x6D
209.351671541666661,886,0xFF,0x03
209.351698999999996,886,0xFF,0x00
209.452524083333344,887,0xF3,0xFF
209.817987791666667,888,0x17,0xFF
209.818015083333336,888,0x02,0xFF
209.818053125000006,888,0xFF,0x11
209.818080583333341,888,0xFF,0x04
209.818107958333343,888,0xFF,0x00
209.918930875000001,889,0xF3,0xFF
210.284378124999989,890,0x17,0xFF
210.284405416666658,890,0x02,0xFF
210.284443458333328,890,0xFF,0xCE
210.284470999999996,890,0xFF,0x04
210.284498416666679,890,0xFF,0x00
210.385353750000007,891,0xF3,0xFF
210.750866333333335,892,0x17,0xFF
210.750893625000003,892,0x02,0xFF
210.750931708333326,892,0xFF,0x5A
210.750959208333342,892,0xFF,0x04
210.750986624999996,892,0xFF,0x00
210.851839166666679,893,0xF3,0xFF
211.218284333333344,894,0x17,0xFF
211.218311583333332,894,0x02,0xFF
211.218349625000002,894,0xFF,0x7D
211.218377208333322,894,0xFF,0x04
211.218404625000005,894,0xFF,0x00
211.319232166666666,895,0xF3,0xFF
211.684739624999992,896,0x17,0xFF
211.684766916666661,896,0x02,0xFF
211.684805000000011,896,0xFF,0x27
211.684832499999999,896,0xFF,0x04
211.684859916666653,896,0xFF,0x00
211.785679583333319,897,0xF3,0xFF
212.151058666666671,898,0x17,0xFF
212.151085916666659,898,0x02,0xFF
212.151124000000010,898,0xFF,0x2D
212.151151499999997,898,0xFF,0x04
212.151178916666680,898,0xFF,0x00
212.252014083333336,899,0xF3,0xFF
212.618392166666666,900,0x17,0xFF
212.618419416666654,900,0x02,0xFF
212.618457458333324,900,0xFF,0xF7
212.618485125000007,900,0xFF,0x02
212.618512500000008,900,0xFF,0x00
212.719298916666673,901,0xF3,0xFF
213.084567083333326,902,0x17,0xFF
213.084594333333342,902,0x02,0xFF
213.084632375000012,902,0xFF,0xB3
213.084659916666681,902,0xFF,0x02
213.084687291666654,902,0xFF,0x00
213.185502166666680,903,0xF3,0xFF
213.551869416666676,904,0x17,0xFF
213.551896708333345,904,0x02,0xFF
213.551934791666667,904,0xFF,0x98
213.551962291666655,904,0xFF,0x04
213.551989708333338,904,0xFF,0x00
213.652822791666665,905,0xF3,0xFF
214.018178708333323,906,0x17,0xFF
214.018205999999992,906,0x02,0xFF
214.018244041666662,906,0xFF,0x08
214.018271458333345,906,0xFF,0x05
214.018298916666680,906,0xFF,0x00
214.119108708333329,907,0xF3,0xFF
214.485433208333347,908,0x17,0xFF
214.485460458333336,908,0x02,0xFF
214.485498541666658,908,0xFF,0x1C
214.485525999999993,908,0xFF,0x04
214.485553416666676,908,0xFF,0x00
214.586369083333324,909,0xF3,0xFF
214.951673000000000,910,0x17,0xFF
214.951700291666668,910,0x02,0xFF
214.951738333333338,910,0xFF,0x99
214.951765875000007,910,0xFF,0x03
214.951793291666661,910,0xFF,0x00
215.052601458333328,911,0xF3,0xFF
215.417942041666663,912,0x17,0xFF
215.417969333333332,912,0x02,0xFF
215.418007333333321,912,0xFF,0xA8
215.418034791666656,912,0xFF,0x03
215.418062208333339,912,0xFF,0x00
215.518830041666661,913,0xF3,0xFF
215.885174958333323,914,0x17,0xFF
215.885202208333340,914,0x02,0xFF
215.885240291666662,914,0xFF,0x82
215.885267708333345,914,0xFF,0x03
215.885295166666680,914,0xFF,0x00
215.986074166666668,915,0xF3,0xFF
216.351336041666656,916,0x17,0xFF
216.351363291666672,916,0x02,0xFF
216.351401374999995,916,0xFF,0xB7
216.351428958333344,916,0xFF,0x03
216.351456374999998,916,0xFF,0x00
216.452291041666655,917,0xF3,0xFF
216.818694208333341,918,0x17,0xFF
216.818721500000009,918,0x02,0xFF
216.818759541666680,918,0xFF,0xD3
216.818787125000000,918,0xFF,0x02
216.818814500000002,918,0xFF,0x00
216.919645624999987,919,0xF3,0xFF
217.285162041666666,920,0x17,0xFF
217.285189333333335,920,0x02,0xFF
217.285227375000005,920,0xFF,0x08
217.285254791666659,920,0xFF,0x03
217.285282249999995,920,0xFF,0x00
217.386133083333334,921,0xF3,0xFF
217.751575166666669,922,0x17,0xFF
217.751602458333338,922,0x02,0xFF
217.751640500000008,922,0xFF,0x04
217.751667916666662,922,0xFF,0x03
217.751695333333345,922,0xFF,0x00
217.852561041666661,923,0xF3,0xFF
218.218964041666680,924,0x17,0xFF
218.218991291666669,924,0x02,0xFF
218.219029333333339,924,0xFF,0x03
218.219056791666674,924,0xFF,0x03
218.219084208333328,924,0xFF,0x00
218.319903000000011,925,0xF3,0xFF
218.685286833333322,926,0x17,0xFF
218.685314083333338,926,0x02,0xFF
218.685352166666661,926,0xFF,0xA1
218.685379624999996,926,0xFF,0x03
218.685407083333331,926,0xFF,0x00
218.786220291666666,927,0xF3,0xFF
219.151676666666674,928,0x17,0xFF
219.151703916666662,928,0x02,0xFF
219.151742000000013,928,0xFF,0xA9
219.151769500000000,928,0xFF,0x02
219.151796875000002,928,0xFF,0x00
219.252608958333326,929,0xF3,0xFF
219.619175374999998,930,0x17,0xFF
219.619202625000014,930,0x02,0xFF
219.619240708333336,930,0xFF,0x65
219.619268208333324,930,0xFF,0x03
219.619295666666659,930,0xFF,0x00
219.720122000000003,931,0xF3,0xFF
220.085648666666657,932,0x17,0xFF
220.085675958333326,932,0x02,0xFF
220.085714041666677,932,0xFF,0x6A
220.085741541666664,932,0xFF,0x03
220.085768999999999,932,0xFF,0x00
220.186585750000006,933,0xF3,0xFF
220.552072124999995,934,0x17,0xFF
220.552099375000012,934,0x02,0xFF
220.552137458333334,934,0xFF,0x09
220.552164916666669,934,0xFF,0x03
220.552192375000004,934,0xFF,0x00
220.653060041666663,935,0xF3,0xFF
221.018590875000001,936,0x17,0xFF
221.018618166666670,936,0x02,0xFF
221.018656208333340,936,0xFF,0x6F
221.018683833333341,936,0xFF,0x03
221.018711249999996,936,0xFF,0x00
221.119574000000000,937,0xF3,0xFF
221.485134333333320,938,0x17,0xFF
221.485161583333337,938,0x02,0xFF
221.485199625000007,938,0xFF,0xAD
221.485227166666675,938,0xFF,0x03
221.485254625000010,938,0xFF,0x00
221.586142666666660,939,0xF3,0xFF
221.952694291666660,940,0x17,0xFF
221.952721583333329,940,0x02,0xFF
221.952759666666680,940,0xFF,0xD9
221.952787250000000,940,0xFF,0x02
221.952814666666654,940,0xFF,0x00
222.053671083333342,941,0xF3,0xFF
222.419280833333346,942,0x17,0xFF
222.419308124999986,942,0x02,0xFF
222.419346208333337,942,0xFF,0x63
222.419373750000005,942,0xFF,0x03
222.419401208333340,942,0xFF,0x00
222.520275416666664,943,0xF3,0xFF
222.885938250000009,944,0x17,0xFF
222.885965541666678,944,0x02,0xFF
222.886003625000001,944,0xFF,0x76
222.886031208333321,944,0xFF,0x04
222.886058625000004,944,0xFF,0x00
222.986914874999997,945,0xF3,0xFF
223.352458624999997,946,0x17,0xFF
223.352485916666666,946,0x02,0xFF
223.352523999999988,946,0xFF,0xBF
223.352551666666670,946,0xFF,0x04
223.352579083333325,946,0xFF,0x00
223.453481791666661,947,0xF3,0xFF
223.819070500000009,948,0x17,0xFF
223.819097791666678,948,0x02,0xFF
223.819135875000001,948,0xFF,0xD0
223.819163374999988,948,0xFF,0x03
223.819190833333323,948,0xFF,0x00
223.920035291666665,949,0xF3,0xFF
224.285485375000007,950,0x17,0xFF
224.285512666666676,950,0x02,0xFF
224.285550708333346,950,0xFF,0xAF
224.285578333333319,950,0xFF,0x03
224.285605791666654,950,0xFF,0x00
224.386438583333330,951,0xF3,0xFF
224.752982416666669,952,0x17,0xFF
224.753009708333337,952,0x02,0xFF
224.753047791666660,952,0xFF,0xFE
224.753075458333342,952,0xFF,0x03
224.753102916666677,952,0xFF,0x00
224.854003416666671,953,0xF3,0xFF
225.219651208333346,954,0x17,0xFF
225.219678499999986,954,0x02,0xFF
225.219716583333337,954,0xFF,0x22
225.219744041666672,954,0xFF,0x05
225.219771500000007,954,0xFF,0x00
225.320651625000011,955,0xF3,0xFF
225.686196083333328,956,0x17,0xFF
225.686223374999997,956,0x02,0xFF
225.686261416666667,956,0xFF,0xFB
225.686289083333321,956,0xFF,0x02
225.686316458333323,956,0xFF,0x00
225.787133000000011,957,0xF3,0xFF
226.152610291666662,958,0x17,0xFF
226.152637583333330,958,0x02,0xFF
226.152675666666653,958,0xFF,0x32
226.152703166666669,958,0xFF,0x03
226.152730625000004,958,0xFF,0x00
226.253566666666671,959,0xF3,0xFF
226.619064874999992,960,0x17,0xFF
226.619092125000009,960,0x02,0xFF
226.619130166666679,960,0xFF,0x97
226.619157749999999,960,0xFF,0x03
226.619185166666654,960,0xFF,0x00
226.720042250000006,961,0xF3,0xFF
227.085551333333342,962,0x17,0xFF
227.085578625000011,962,0x02,0xFF
227.085616708333333,962,0xFF,0x6B
227.085644291666654,962,0xFF,0x03
227.085671749999989,962,0xFF,0x00
227.186540208333327,963,0xF3,0xFF
227.553174208333331,964,0x17,0xFF
227.553201458333319,964,0x02,0xFF
227.553239541666670,964,0xFF,0x44
227.553267000000005,964,0xFF,0x02
227.553294375000007,964,0xFF,0x00
227.654128083333347,965,0xF3,0xFF
228.019722374999986,966,0x17,0xFF
228.019749666666655,966,0x02,0xFF
228.019787750000006,966,0xFF,0xC7
228.019815333333327,966,0xFF,0x02
228.019842708333329,966,0xFF,0x00
228.120700749999997,967,0xF3,0xFF
228.486254458333320,968,0x17,0xFF
228.486281708333337,968,0x02,0xFF
228.486319791666659,968,0xFF,0x4E
228.486347291666675,968,0xFF,0x03
228.486374750000010,968,0xFF,0x00
228.587220624999986,969,0xF3,0xFF
228.952716166666676,970,0x17,0xFF
228.952743458333345,970,0x02,0xFF
228.952781541666667,970,0xFF,0x8F
228.952809124999987,970,0xFF,0x02
228.952836541666670,970,0xFF,0x00
229.053725416666680,971,0xF3,0xFF
229.419213166666680,972,0x17,0xFF
229.419240500000001,972,0x02,0xFF
229.419278583333323,972,0xFF,0x67
229.419306166666672,972,0xFF,0x02
229.419333583333326,972,0xFF,0x00
229.520156166666681,973,0xF3,0xFF
229.886649000000006,974,0x17,0xFF
229.886676291666674,974,0x02,0xFF
229.886714374999997,974,0xFF,0x15
229.886741875000013,974,0xFF,0x02
229.886769291666667,974,0xFF,0x00
229.987681708333326,975,0xF3,0xFF
230.353363000000002,976,0x17,0xFF
230.353390291666670,976,0x02,0xFF
230.353428416666674,976,0xFF,0xFF
230.353456125000008,976,0xFF,0xFF
230.353483833333343,976,0xFF,0xFF
230.454370750000010,977,0xF3,0xFF
230.819939333333338,978,0x17,0xFF
230.819966625000006,978,0x02,0xFF
230.820004708333329,978,0xFF,0x69
230.820032249999997,978,0xFF,0x03
230.820059708333332,978,0xFF,0x00
230.920918333333333,979,0xF3,0xFF
231.286662791666657,980,0x17,0xFF
231.286690041666674,980,0x02,0xFF
231.286728124999996,980,0xFF,0x21
231.286755583333331,980,0xFF,0x04
231.286783000000014,980,0xFF,0x00
231.387650124999993,981,0xF3,0xFF
231.753250083333342,982,0x17,0xFF
231.753277375000010,982,0x02,0xFF
231.753315458333333,982,0xFF,0xAB
231.753343083333334,982,0xFF,0x03
231.753370541666669,982,0xFF,0x00
231.854230291666653,983,0xF3,0xFF
232.219839791666658,984,0x17,0xFF
232.219867125000007,984,0x02,0xFF
232.219905208333330,984,0xFF,0xDF
232.219932875000012,984,0xFF,0x02
232.219960250000014,984,0xFF,0x00
232.320848750000010,985,0xF3,0xFF
232.686385458333319,986,0x17,0xFF
232.686412708333336,986,0x02,0xFF
232.686450750000006,986,0xFF,0xF6
232.686478375000007,986,0xFF,0x03
232.686505791666661,986,0xFF,0x00
232.787349541666657,987,0xF3,0xFF
233.152863083333330,988,0x17,0xFF
233.152890374999998,988,0x02,0xFF
233.152928458333321,988,0xFF,0x25
233.152955916666656,988,0xFF,0x02
233.152983333333339,988,0xFF,0x00
233.253822291666665,989,0xF3,0xFF
233.619336083333337,990,0x17,0xFF
233.619363375000006,990,0x02,0xFF
233.619401458333328,990,0xFF,0x53
233.619428958333344,990,0xFF,0x03
233.619456374999999,990,0xFF,0x00
233.720319291666669,991,0xF3,0xFF
234.086822958333329,992,0x17,0xFF
234.086850249999998,992,0x02,0xFF
234.086888333333320,992,0xFF,0x36
234.086915833333336,992,0xFF,0x03
234.086943291666671,992,0xFF,0x00
234.187768416666671,993,0xF3,0xFF
234.553315833333329,994,0x17,0xFF
234.553343124999998,994,0x02,0xFF
234.553381166666668,994,0xFF,0xA9
234.553408708333336,994,0xFF,0x03
234.553436124999990,994,0xFF,0x00
234.654288041666661,995,0xF3,0xFF
235.019749541666670,996,0x17,0xFF
235.019776791666658,996,0x02,0xFF
235.019814875000009,996,0xFF,0x2C
235.019842333333344,996,0xFF,0x03
235.019869791666679,996,0xFF,0x00
235.120718374999996,997,0xF3,0xFF
235.486209041666655,998,0x17,0xFF
235.486236333333324,998,0x02,0xFF
235.486274416666674,998,0xFF,0x76
235.486301999999995,998,0xFF,0x04
235.486329416666678,998,0xFF,0x00
235.587210791666678,999,0xF3,0xFF
235.953833583333335,1000,0x17,0xFF
235.953860875000004,1000,0x02,0xFF
235.953898958333326,1000,0xFF,0x53
235.953926499999994,1000,0xFF,0x04
235.953953916666677,1000,0xFF,0x00
236.054801333333330,1001,0xF3,0xFF
236.420279833333325,1002,0x17,0xFF
236.420307124999994,1002,0x02,0xFF
236.420345208333345,1002,0xFF,0xA3
236.420372708333332,1002,0xFF,0x04
236.420400083333334,1002,0xFF,0x00
236.521281041666668,1003,0xF3,0xFF
236.886775083333333,1004,0x17,0xFF
236.886802375000002,1004,0x02,0xFF
236.886840458333324,1004,0xFF,0x6B
236.886868041666673,1004,0xFF,0x03
236.886895500000008,1004,0xFF,0x00
236.987780375000000,1005,0xF3,0xFF
237.353242083333328,1006,0x17,0xFF
237.353269333333344,1006,0x02,0xFF
237.353307416666667,1006,0xFF,0xC0
237.353334833333321,1006,0xFF,0x03
237.353362291666656,1006,0xFF,0x00
237.454180791666658,1007,0xF3,0xFF
237.820612750000009,1008,0x17,0xFF
237.820640041666678,1008,0x02,0xFF
237.820678125000001,1008,0xFF,0x84
237.820705541666655,1008,0xFF,0x02
237.820732958333338,1008,0xFF,0x00
237.921561125000011,1009,0xF3,0xFF
238.287068874999989,1010,0x17,0xFF
238.287096166666657,1010,0x02,0xFF
238.287134250000008,1010,0xFF,0x7D
238.287161875000010,1010,0xFF,0x03
238.287189333333345,1010,0xFF,0x00
238.388062791666670,1011,0xF3,0xFF
238.753520124999994,1012,0x17,0xFF
238.753547416666663,1012,0x02,0xFF
238.753585458333333,1012,0xFF,0x3D
238.753613041666654,1012,0xFF,0x03
238.753640458333336,1012,0xFF,0x00
238.854431583333337,1013,0xF3,0xFF
239.219795833333336,1014,0x17,0xFF
239.219823125000005,1014,0x02,0xFF
239.219861208333327,1014,0xFF,0xB1
239.219888708333343,1014,0xFF,0x02
239.219916124999997,1014,0xFF,0x00
239.320770833333341,1015,0xF3,0xFF
239.687280083333320,1016,0x17,0xFF
239.687307374999989,1016,0x02,0xFF
239.687345499999992,1016,0xFF,0x77
239.687373124999993,1016,0xFF,0x02
239.687400541666676,1016,0xFF,0x00
239.788269416666679,1017,0xF3,0xFF
240.153700416666680,1018,0x17,0xFF
240.153727708333321,1018,0x02,0xFF
240.153765791666672,1018,0xFF,0x48
240.153793208333326,1018,0xFF,0x02
240.153820625000009,1018,0xFF,0x00
240.254664166666657,1019,0xF3,0xFF
240.620158041666656,1020,0x17,0xFF
240.620185333333325,1020,0x02,0xFF
240.620223416666676,1020,0xFF,0x9B
240.620250958333344,1020,0xFF,0x02
240.620278374999998,1020,0xFF,0x00
240.721105958333339,1021,0xF3,0xFF
241.087420624999993,1022,0x17,0xFF
241.087447875000009,1022,0x02,0xFF
241.087485916666679,1022,0xFF,0xDD
241.087513500000000,1022,0xFF,0x02
241.087540875000002,1022,0xFF,0x00
241.188349416666654,1023,0xF3,0xFF
241.553671083333342,1024,0x17,0xFF
241.553698375000010,1024,0x02,0xFF
241.553736458333333,1024,0xFF,0x25
241.553763916666668,1024,0xFF,0x03
241.553791375000003,1024,0xFF,0x00
241.654572624999986,1025,0xF3,0xFF
242.020851833333325,1026,0x17,0xFF
242.020879124999993,1026,0x02,0xFF
242.020917166666663,1026,0xFF,0xF9
242.020944791666665,1026,0xFF,0x02
242.020972166666667,1026,0xFF,0x00
242.121760916666659,1027,0xF3,0xFF
242.487052708333323,1028,0x17,0xFF
242.487079999999992,1028,0x02,0xFF
242.487118083333343,1028,0xFF,0x0C
242.487145541666678,1028,0xFF,0x04
242.487172916666680,1028,0xFF,0x00
242.587985250000003,1029,0xF3,0xFF
242.954333416666657,1030,0x17,0xFF
242.954360666666673,1030,0x02,0xFF
242.954398708333343,1030,0xFF,0x25
242.954426166666678,1030,0xFF,0x04
242.954453583333333,1030,0xFF,0x00
243.055268083333345,1031,0xF3,0xFF
243.420642666666680,1032,0x17,0xFF
243.420669958333320,1032,0x02,0xFF
243.420707999999991,1032,0xFF,0x1E
243.420735541666659,1032,0xFF,0x04
243.420762916666661,1032,0xFF,0x00
243.521559083333329,1033,0xF3,0xFF
243.886799208333343,1034,0x17,0xFF
243.886826458333331,1034,0x02,0xFF
243.886864458333321,1034,0xFF,0x7A
243.886891958333337,1034,0xFF,0x04
243.886919333333338,1034,0xFF,0x00
243.987698875000007,1035,0xF3,0xFF
244.354122708333335,1036,0x17,0xFF
244.354150000000004,1036,0x02,0xFF
244.354188125000007,1036,0xFF,0x29
244.354215624999995,1036,0xFF,0x04
244.354243041666678,1036,0xFF,0x00
244.455075791666673,1037,0xF3,0xFF
244.820493749999997,1038,0x17,0xFF
244.820521041666666,1038,0x02,0xFF
244.820559083333336,1038,0xFF,0xA7
244.820586625000004,1038,0xFF,0x03
244.820614041666659,1038,0xFF,0x00
244.921463583333320,1039,0xF3,0xFF
245.286956916666668,1040,0x17,0xFF
245.286984166666656,1040,0x02,0xFF
245.287022250000007,1040,0xFF,0x99
245.287049791666675,1040,0xFF,0x03
245.287077208333329,1040,0xFF,0x00
245.387917291666668,1041,0xF3,0xFF
245.754385124999999,1042,0x17,0xFF
245.754412374999987,1042,0x02,0xFF
245.754450416666657,1042,0xFF,0x2D
245.754477958333325,1042,0xFF,0x04
245.754505333333327,1042,0xFF,0x00
245.855324833333327,1043,0xF3,0xFF
246.220765916666664,1044,0x17,0xFF
246.220793208333333,1044,0x02,0xFF
246.220831291666656,1044,0xFF,0xED
246.220858875000005,1044,0xFF,0x03
246.220886333333340,1044,0xFF,0x00
246.321736291666667,1045,0xF3,0xFF
246.687102416666676,1046,0x17,0xFF
246.687129666666664,1046,0x02,0xFF
246.687167708333334,1046,0xFF,0xE6
246.687195250000002,1046,0xFF,0x02
246.687222625000004,1046,0xFF,0x00
246.788032291666667,1047,0xF3,0xFF
247.154660458333325,1048,0x17,0xFF
247.154687749999994,1048,0x02,0xFF
247.154725833333345,1048,0xFF,0x20
247.154753249999999,1048,0xFF,0x03
247.154780708333334,1048,0xFF,0x00
247.255635708333330,1049,0xF3,0xFF
247.621106041666678,1050,0x17,0xFF
247.621133291666666,1050,0x02,0xFF
247.621171374999989,1050,0xFF,0x5C
247.621198875000005,1050,0xFF,0x02
247.621226291666659,1050,0xFF,0x00
247.722031625000000,1051,0xF3,0xFF
248.087391458333343,1052,0x17,0xFF
248.087418708333331,1052,0x02,0xFF
248.087456791666654,1052,0xFF,0x06
248.087484208333336,1052,0xFF,0x03
248.087511666666671,1052,0xFF,0x00
248.188317583333344,1053,0xF3,0xFF
248.554776916666668,1054,0x17,0xFF
248.554804208333337,1054,0x02,0xFF
248.554842291666660,1054,0xFF,0x8F
248.554869875000009,1054,0xFF,0x03
248.554897333333344,1054,0xFF,0x00
248.655728833333342,1055,0xF3,0xFF
249.021241500000002,1056,0x17,0xFF
249.021268749999990,1056,0x02,0xFF
249.021306874999993,1056,0xFF,0x50
249.021334333333328,1056,0xFF,0x03
249.021361750000011,1056,0xFF,0x00
249.122212583333322,1057,0xF3,0xFF
249.487746958333332,1058,0x17,0xFF
249.487774208333320,1058,0x02,0xFF
249.487812291666671,1058,0xFF,0x06
249.487839750000006,1058,0xFF,0x04
249.487867125000008,1058,0xFF,0x00
249.588720625000008,1059,0xF3,0xFF
249.954273333333333,1060,0x17,0xFF
249.954300625000002,1060,0x02,0xFF
249.954338708333324,1060,0xFF,0x1C
249.954366208333340,1060,0xFF,0x05
249.954393624999994,1060,0xFF,0x00
250.055265958333337,1061,0xF3,0xFF
250.420813666666675,1062,0x17,0xFF
250.420840958333343,1062,0x02,0xFF
250.420879041666666,1062,0xFF,0x0D
250.420906500000001,1062,0xFF,0x05
250.420933916666655,1062,0xFF,0x00
250.521753416666655,1063,0xF3,0xFF
250.888212000000010,1064,0x17,0xFF
250.888239249999998,1064,0x02,0xFF
250.888277333333320,1064,0xFF,0xA7
250.888304874999989,1064,0xFF,0x03
250.888332333333324,1064,0xFF,0x00
250.989170124999987,1065,0xF3,0xFF
251.354596333333348,1066,0x17,0xFF
251.354623624999988,1066,0x02,0xFF
251.354661708333339,1066,0xFF,0x0E
251.354689166666674,1066,0xFF,0x04
251.354716583333328,1066,0xFF,0x00
251.455568749999998,1067,0xF3,0xFF
251.821088208333322,1068,0x17,0xFF
251.821115458333338,1068,0x02,0xFF
251.821153541666661,1068,0xFF,0x1B
251.821181041666676,1068,0xFF,0x04
251.821208458333331,1068,0xFF,0x00
251.922041041666660,1069,0xF3,0xFF
252.287614833333322,1070,0x17,0xFF
252.287642083333338,1070,0x02,0xFF
252.287680166666661,1070,0xFF,0x73
252.287707708333329,1070,0xFF,0x03
252.287735166666664,1070,0xFF,0x00
252.388588208333346,1071,0xF3,0xFF
252.755048791666667,1072,0x17,0xFF
252.755076083333336,1072,0x02,0xFF
252.755114125000006,1072,0xFF,0x9C
252.755141666666674,1072,0xFF,0x03
252.755169083333328,1072,0xFF,0x00
252.855996958333321,1073,0xF3,0xFF
253.221451333333334,1074,0x17,0xFF
253.221478625000003,1074,0x02,0xFF
253.221516666666673,1074,0xFF,0x04
253.221544041666675,1074,0xFF,0x04
253.221571416666677,1074,0xFF,0x00
253.322403708333326,1075,0xF3,0xFF
253.687839125000011,1076,0x17,0xFF
253.687866374999999,1076,0x02,0xFF
253.687904416666669,1076,0xFF,0x2B
253.687931958333337,1076,0xFF,0x04
253.687959333333339,1076,0xFF,0x00
253.788794499999995,1077,0xF3,0xFF
254.154368750000003,1078,0x17,0xFF
254.154396041666672,1078,0x02,0xFF
254.154434124999995,1078,0xFF,0x82
254.154461541666677,1078,0xFF,0x03
254.154488958333332,1078,0xFF,0x00
254.255388874999994,1079,0xF3,0xFF
254.621061458333344,1080,0x17,0xFF
254.621088750000013,1080,0x02,0xFF
254.621126833333335,1080,0xFF,0x82
254.621154291666670,1080,0xFF,0x03
254.621181750000005,1080,0xFF,0x00
254.722073458333341,1081,0xF3,0xFF
255.088713750000011,1082,0x17,0xFF
255.088741041666680,1082,0x02,0xFF
255.088779166666654,1082,0xFF,0x55
255.088806750000003,1082,0xFF,0x03
255.088834208333338,1082,0xFF,0x00
255.189737624999992,1083,0xF3,0xFF
255.555287291666673,1084,0x17,0xFF
255.555314541666661,1084,0x02,0xFF
255.555352625000012,1084,0xFF,0xE1
255.555380166666680,1084,0xFF,0x02
255.555407583333334,1084,0xFF,0x00
255.656298249999992,1085,0xF3,0xFF
256.021986666666692,1086,0x17,0xFF
256.022013958333332,1086,0x02,0xFF
256.022052041666655,1086,0xFF,0xB8
256.022079583333323,1086,0xFF,0x04
256.022106958333325,1086,0xFF,0x00
256.123003458333358,1087,0xF3,0xFF
256.488484125000014,1088,0x17,0xFF
256.488511416666654,1088,0x02,0xFF
256.488549499999976,1088,0xFF,0x68
256.488576958333340,1088,0xFF,0x03
256.488604416666647,1088,0xFF,0x00
256.589451124999982,1089,0xF3,0xFF
256.954917208333313,1090,0x17,0xFF
256.954944500000011,1090,0x02,0xFF
256.954982583333333,1090,0xFF,0x0B
256.955010041666640,1090,0xFF,0x03
256.955037500000003,1090,0xFF,0x00
257.055867374999991,1091,0xF3,0xFF
257.421363958333359,1092,0x17,0xFF
257.421391249999999,1092,0x02,0xFF
257.421429333333322,1092,0xFF,0x03
257.421456791666685,1092,0xFF,0x03
257.421484249999992,1092,0xFF,0x00
257.522332333333338,1093,0xF3,0xFF
257.888797916666647,1094,0x17,0xFF
257.888825166666663,1094,0x02,0xFF
257.888863249999986,1094,0xFF,0xE8
257.888890749999973,1094,0xFF,0x02
257.888918166666656,1094,0xFF,0x00
257.989736833333325,1095,0xF3,0xFF
258.355119375000015,1096,0x17,0xFF
258.355146666666656,1096,0x02,0xFF
258.355184708333354,1096,0xFF,0xFB
258.355212375000008,1096,0xFF,0x02
258.355239750000010,1096,0xFF,0x00
258.456084750000002,1097,0xF3,0xFF
258.821634333333350,1098,0x17,0xFF
258.821661624999990,1098,0x02,0xFF
258.821699666666689,1098,0xFF,0xF4
258.821727249999981,1098,0xFF,0x03
258.821754666666664,1098,0xFF,0x00
258.922582250000005,1099,0xF3,0xFF
259.288046083333313,1100,0x17,0xFF
259.288073375000010,1100,0x02,0xFF
259.288111458333333,1100,0xFF,0xA7
259.288139041666682,1100,0xFF,0x04
259.288166416666684,1100,0xFF,0x00
259.388981875000013,1101,0xF3,0xFF
259.755470500000001,1102,0x17,0xFF
259.755497750000018,1102,0x02,0xFF
259.755535833333340,1102,0xFF,0x81
259.755563250000023,1102,0xFF,0x04
259.755590625000025,1102,0xFF,0x00
259.856456333333313,1103,0xF3,0xFF
260.221982958333342,1104,0x17,0xFF
260.222010249999983,1104,0x02,0xFF
260.222048291666681,1104,0xFF,0x57
260.222075874999973,1104,0xFF,0x03
260.222103333333337,1104,0xFF,0x00
260.322926250000023,1105,0xF3,0xFF
260.688339541666664,1106,0x17,0xFF
260.688366833333362,1106,0x02,0xFF
260.688404916666684,1106,0xFF,0x77
260.688432541666657,1106,0xFF,0x02
260.688459958333340,1106,0xFF,0x00
260.789281458333335,1107,0xF3,0xFF
261.155795208333359,1108,0x17,0xFF
261.155822499999999,1108,0x02,0xFF
261.155860625000003,1108,0xFF,0xBC
261.155888208333351,1108,0xFF,0x02
261.155915624999977,1108,0xFF,0x00
261.256785458333354,1109,0xF3,0xFF
261.622302166666657,1110,0x17,0xFF
261.622329458333354,1110,0x02,0xFF
261.622367541666677,1110,0xFF,0xC3
261.622395041666664,1110,0xFF,0x02
261.622422458333347,1110,0xFF,0x00
261.723272583333312,1111,0xF3,0xFF
262.088827833333312,1112,0x17,0xFF
262.088855125000009,1112,0x02,0xFF
262.088893208333332,1112,0xFF,0x87
262.088920750000000,1112,0xFF,0x02
262.088948166666682,1112,0xFF,0x00
262.189777999999990,1113,0xF3,0xFF
262.555170666666640,1114,0x17,0xFF
262.555197958333338,1114,0x02,0xFF
262.555236041666660,1114,0xFF,0x36
262.555263541666648,1114,0xFF,0x02
262.555290958333330,1114,0xFF,0x00
262.656127291666678,1115,0xF3,0xFF
263.021709750000014,1116,0x17,0xFF
263.021737041666654,1116,0x02,0xFF
263.021775124999976,1116,0xFF,0x4E
263.021802666666645,1116,0xFF,0x03
263.021830125000008,1116,0xFF,0x00
263.122669583333334,1117,0xF3,0xFF
263.489051583333321,1118,0x17,0xFF
263.489078875000018,1118,0x02,0xFF
263.489116916666660,1118,0xFF,0x5D
263.489144458333328,1118,0xFF,0x02
263.489171833333330,1118,0xFF,0x00
263.589991166666664,1119,0xF3,0xFF
263.955560624999976,1120,0x17,0xFF
263.955587916666673,1120,0x02,0xFF
263.955625999999995,1120,0xFF,0x38
263.955653458333359,1120,0xFF,0x02
263.955680874999985,1120,0xFF,0x00
264.056519874999992,1121,0xF3,0xFF
264.421968583333353,1122,0x17,0xFF
264.421995874999993,1122,0x02,0xFF
264.422033958333316,1122,0xFF,0xA4
264.422061416666679,1122,0xFF,0x02
264.422088833333305,1122,0xFF,0x00
264.522906499999976,1123,0xF3,0xFF
264.889450500000009,1124,0x17,0xFF
264.889477791666650,1124,0x02,0xFF
264.889515874999972,1124,0xFF,0xBC
264.889543416666640,1124,0xFF,0x02
264.889570833333323,1124,0xFF,0x00
264.990413791666640,1125,0xF3,0xFF
265.355904375000023,1126,0x17,0xFF
265.355931666666663,1126,0x02,0xFF
265.355969708333362,1126,0xFF,0x38
265.355997208333349,1126,0xFF,0x03
265.356024666666656,1126,0xFF,0x00
265.456870291666689,1127,0xF3,0xFF
265.822428166666668,1128,0x17,0xFF
265.822455458333309,1128,0x02,0xFF
265.822493541666688,1128,0xFF,0xF4
265.822521124999980,1128,0xFF,0x01
265.822548541666663,1128,0xFF,0x00
265.923409958333309,1129,0xF3,0xFF
266.288965374999975,1130,0x17,0xFF
266.288992666666672,1130,0x02,0xFF
266.289030708333314,1130,0xFF,0x53
266.289058249999982,1130,0xFF,0x02
266.289085666666665,1130,0xFF,0x00
266.389943291666668,1131,0xF3,0xFF
266.755595083333333,1132,0x17,0xFF
266.755622416666654,1132,0x02,0xFF
266.755660541666657,1132,0xFF,0x84
266.755688041666644,1132,0xFF,0x02
266.755715458333327,1132,0xFF,0x00
266.856630999999993,1133,0xF3,0xFF
267.222206541666651,1134,0x17,0xFF
267.222233833333348,1134,0x02,0xFF
267.222271916666671,1134,0xFF,0x8B
267.222299458333339,1134,0xFF,0x02
267.222326833333341,1134,0xFF,0x00
267.323212333333345,1135,0xF3,0xFF
267.688860041666658,1136,0x17,0xFF
267.688887333333355,1136,0x02,0xFF
267.688925416666677,1136,0xFF,0x83
267.688952916666665,1136,0xFF,0x02
267.688980333333348,1136,0xFF,0x00
267.789833625000028,1137,0xF3,0xFF
268.156352458333345,1138,0x17,0xFF
268.156379749999985,1138,0x02,0xFF
268.156417833333307,1138,0xFF,0xB5
268.156445374999976,1138,0xFF,0x02
268.156472791666658,1138,0xFF,0x00
268.257357375000026,1139,0xF3,0xFF
268.622906333333333,1140,0x17,0xFF
268.622933624999973,1140,0x02,0xFF
268.622971708333353,1140,0xFF,0x34
268.622999208333340,1140,0xFF,0x03
268.623026666666647,1140,0xFF,0x00
268.723901458333330,1141,0xF3,0xFF
269.089480416666675,1142,0x17,0xFF
269.089507708333315,1142,0x02,0xFF
269.089545791666694,1142,0xFF,0x76
269.089573374999986,1142,0xFF,0x03
269.089600833333350,1142,0xFF,0x00
269.190455541666665,1143,0xF3,0xFF
269.556010416666652,1144,0x17,0xFF
269.556037708333349,1144,0x02,0xFF
269.556075749999991,1144,0xFF,0xA5
269.556103291666659,1144,0xFF,0x02
269.556130708333342,1144,0xFF,0x00
269.656995166666661,1145,0xF3,0xFF
270.022488124999995,1146,0x17,0xFF
270.022515416666693,1146,0x02,0xFF
270.022553500000015,1146,0xFF,0x06
270.022580958333322,1146,0xFF,0x04
270.022608375000004,1146,0xFF,0x00
270.123473791666640,1147,0xF3,0xFF
270.488996291666695,1148,0x17,0xFF
270.489023541666654,1148,0x02,0xFF
270.489061624999977,1148,0xFF,0xC0
270.489089041666659,1148,0xFF,0x03
270.489116500000023,1148,0xFF,0x00
270.589996791666692,1149,0xF3,0xFF
270.956556125000020,1150,0x17,0xFF
270.956583416666660,1150,0x02,0xFF
270.956621499999983,1150,0xFF,0x2F
270.956649083333332,1150,0xFF,0x05
270.956676500000015,1150,0xFF,0x00
271.057549333333327,1151,0xF3,0xFF
271.423130541666694,1152,0x17,0xFF
271.423157833333335,1152,0x02,0xFF
271.423195916666657,1152,0xFF,0x26
271.423223375000020,1152,0xFF,0x03
271.423250791666646,1152,0xFF,0x00
271.524108166666679,1153,0xF3,0xFF
271.889610375000018,1154,0x17,0xFF
271.889637666666658,1154,0x02,0xFF
271.889675749999981,1154,0xFF,0xD8
271.889703250000025,1154,0xFF,0x03
271.889730708333332,1154,0xFF,0x00
271.990596999999980,1155,0xF3,0xFF
272.356164166666645,1156,0x17,0xFF
272.356191458333342,1156,0x02,0xFF
272.356229541666664,1156,0xFF,0x8D
272.356257125000013,1156,0xFF,0x03
272.356284583333320,1156,0xFF,0x00
272.457169583333325,1157,0xF3,0xFF
272.822796916666675,1158,0x17,0xFF
272.822824208333316,1158,0x02,0xFF
272.822862291666695,1158,0xFF,0x16
272.822889750000002,1158,0xFF,0x03
272.822917208333308,1158,0xFF,0x00
272.923811708333346,1159,0xF3,0xFF
273.289314624999975,1160,0x17,0xFF
273.289341916666672,1160,0x02,0xFF
273.289379958333313,1160,0xFF,0xD2
273.289407499999982,1160,0xFF,0x02
273.289434874999984,1160,0xFF,0x00
273.390289875000008,1161,0xF3,0xFF
273.756744583333330,1162,0x17,0xFF
273.756771875000027,1162,0x02,0xFF
273.756809916666668,1162,0xFF,0xE4
273.756837458333337,1162,0xFF,0x02
273.756864833333339,1162,0xFF,0x00
273.857703500000014,1163,0xF3,0xFF
274.223125041666663,1164,0x17,0xFF
274.223152333333360,1164,0x02,0xFF
274.223190416666682,1164,0xFF,0xB6
274.223217958333350,1164,0xFF,0x02
274.223245374999976,1164,0xFF,0x00
274.324093666666670,1165,0xF3,0xFF
274.689542791666668,1166,0x17,0xFF
274.689570124999989,1166,0x02,0xFF
274.689608208333311,1166,0xFF,0xF6
274.689635833333341,1166,0xFF,0x01
274.689663250000024,1166,0xFF,0x00
274.790514333333306,1167,0xF3,0xFF
275.155937041666675,1168,0x17,0xFF
275.155964291666692,1168,0x02,0xFF
275.156002333333333,1168,0xFF,0x59
275.156029833333321,1168,0xFF,0x02
275.156057250000003,1168,0xFF,0x00
275.256850791666693,1169,0xF3,0xFF
275.623292208333339,1170,0x17,0xFF
275.623319499999980,1170,0x02,0xFF
275.623357541666678,1170,0xFF,0x35
275.623385083333346,1170,0xFF,0x02
275.623412458333348,1170,0xFF,0x00
275.724232208333319,1171,0xF3,0xFF
276.089728416666674,1172,0x17,0xFF
276.089755708333314,1172,0x02,0xFF
276.089793750000013,1172,0xFF,0xC3
276.089821291666681,1172,0xFF,0x02
276.089848708333307,1172,0xFF,0x00
276.190674583333362,1173,0xF3,0xFF
276.556205791666684,1174,0x17,0xFF
276.556233083333325,1174,0x02,0xFF
276.556271166666647,1174,0xFF,0x5E
276.556298749999996,1174,0xFF,0x03
276.556326208333360,1174,0xFF,0x00
276.657183458333350,1175,0xF3,0xFF
277.023718166666640,1176,0x17,0xFF
277.023745458333337,1176,0x02,0xFF
277.023783541666660,1176,0xFF,0x4D
277.023811083333328,1176,0xFF,0x03
277.023838500000011,1176,0xFF,0x00
277.124709250000024,1177,0xF3,0xFF
277.490380708333305,1178,0x17,0xFF
277.490408000000002,1178,0x02,0xFF
277.490446083333325,1178,0xFF,0x82
277.490473541666688,1178,0xFF,0x02
277.490500958333314,1178,0xFF,0x00
277.591412083333353,1179,0xF3,0xFF
277.957121583333333,1180,0x17,0xFF
277.957148874999973,1180,0x02,0xFF
277.957186958333352,1180,0xFF,0x93
277.957214500000021,1180,0xFF,0x04
277.957241916666646,1180,0xFF,0x00
278.058140250000008,1181,0xF3,0xFF
278.423796541666661,1182,0x17,0xFF
278.423823833333358,1182,0x02,0xFF
278.423861916666681,1182,0xFF,0x2A
278.423889416666668,1182,0xFF,0x05
278.423916874999975,1182,0xFF,0x00
278.524818208333329,1183,0xF3,0xFF
278.890477750000002,1184,0x17,0xFF
278.890505083333323,1184,0x02,0xFF
278.890543208333327,1184,0xFF,0x78
278.890570791666676,1184,0xFF,0x05
278.890598249999982,1184,0xFF,0x00
278.991493375000005,1185,0xF3,0xFF
279.357109541666659,1186,0x17,0xFF
279.357136833333357,1186,0x02,0xFF
279.357174916666679,1186,0xFF,0x4B
279.357202500000028,1186,0xFF,0x03
279.357229958333335,1186,0xFF,0x00
279.458095916666650,1187,0xF3,0xFF
279.823613666666688,1188,0x17,0xFF
279.823640958333328,1188,0x02,0xFF
279.823679000000027,1188,0xFF,0x75
279.823706541666638,1188,0xFF,0x04
279.823733958333321,1188,0xFF,0x00
279.924550958333327,1189,0xF3,0xFF
280.289964875000010,1190,0x17,0xFF
280.289992125000026,1190,0x02,0xFF
280.290030208333349,1190,0xFF,0xCA
280.290057708333336,1190,0xFF,0x03
280.290085125000019,1190,0xFF,0x00
280.390908416666662,1191,0xF3,0xFF
280.756366749999984,1192,0x17,0xFF
280.756394000000000,1192,0x02,0xFF
280.756432041666642,1192,0xFF,0x18
280.756459458333325,1192,0xFF,0x05
280.756486875000007,1192,0xFF,0x00
280.857281375000014,1193,0xF3,0xFF
281.223692458333346,1194,0x17,0xFF
281.223719749999987,1194,0x02,0xFF
281.223757833333309,1194,0xFF,0xEE
281.223785416666658,1194,0xFF,0x02
281.223812833333341,1194,0xFF,0x00
281.324613541666679,1195,0xF3,0xFF
281.690017041666692,1196,0x17,0xFF
281.690044333333333,1196,0x02,0xFF
281.690082416666655,1196,0xFF,0x0B
281.690109875000019,1196,0xFF,0x04
281.690137291666645,1196,0xFF,0x00
281.790959791666694,1197,0xF3,0xFF
282.157374541666684,1198,0x17,0xFF
282.157401833333324,1198,0x02,0xFF
282.157439875000023,1198,0xFF,0xA7
282.157467458333315,1198,0xFF,0x03
282.157494874999998,1198,0xFF,0x00
282.258292374999996,1199,0xF3,0xFF
282.623807166666666,1200,0x17,0xFF
282.623834416666682,1200,0x02,0xFF
282.623872500000004,1200,0xFF,0x75
282.623900041666673,1200,0xFF,0x04
282.623927458333355,1200,0xFF,0x00
282.724782249999976,1201,0xF3,0xFF
283.090300583333317,1202,0x17,0xFF
283.090327875000014,1202,0x02,0xFF
283.090365916666656,1202,0xFF,0x97
283.090393458333324,1202,0xFF,0x03
283.090420875000007,1202,0xFF,0x00
283.191250958333342,1203,0xF3,0xFF
283.556576875000019,1204,0x17,0xFF
283.556604124999978,1204,0x02,0xFF
283.556642208333358,1204,0xFF,0x3C
283.556669708333345,1204,0xFF,0x03
283.556697125000028,1204,0xFF,0x00
283.657451583333341,1205,0xF3,0xFF
284.023869208333338,1206,0x17,0xFF
284.023896499999978,1206,0x02,0xFF
284.023934541666677,1206,0xFF,0x3D
284.023962125000025,1206,0xFF,0x03
284.023989541666651,1206,0xFF,0x00
284.124787625000010,1207,0xF3,0xFF
284.490129041666648,1208,0x17,0xFF
284.490156291666665,1208,0x02,0xFF
284.490194333333307,1208,0xFF,0x0F
284.490221833333351,1208,0xFF,0x04
284.490249208333353,1208,0xFF,0x00
284.591071833333331,1209,0xF3,0xFF
284.957535749999977,1210,0x17,0xFF
284.957562999999993,1210,0x02,0xFF
284.957601083333316,1210,0xFF,0x5E
284.957628624999984,1210,0xFF,0x04
284.957655999999986,1210,0xFF,0x00
285.058475958333361,1211,0xF3,0xFF
285.423902791666649,1212,0x17,0xFF
285.423930083333346,1212,0x02,0xFF
285.423968124999988,1212,0xFF,0x6D
285.423995666666656,1212,0xFF,0x04
285.424023041666658,1212,0xFF,0x00
285.524818208333329,1213,0xF3,0xFF
285.890070958333354,1214,0x17,0xFF
285.890098208333313,1214,0x02,0xFF
285.890136291666693,1214,0xFF,0x9C
285.890163833333361,1214,0xFF,0x03
285.890191249999987,1214,0xFF,0x00
285.991002166666647,1215,0xF3,0xFF
286.357273208333311,1216,0x17,0xFF
286.357300500000008,1216,0x02,0xFF
286.357338583333330,1216,0xFF,0xAA
286.357366083333318,1216,0xFF,0x04
286.357393500000001,1216,0xFF,0x00
286.458210749999978,1217,0xF3,0xFF
286.823645875000011,1218,0x17,0xFF
286.823673166666651,1218,0x02,0xFF
286.823711166666669,1218,0xFF,0x94
286.823738666666657,1218,0xFF,0x02
286.823766041666659,1218,0xFF,0x00
286.924540041666660,1219,0xF3,0xFF
287.290824791666694,1220,0x17,0xFF
287.290852041666653,1220,0x02,0xFF
287.290890124999976,1220,0xFF,0x77
287.290917708333325,1220,0xFF,0x02
287.290945083333327,1220,0xFF,0x00
287.391727083333308,1221,0xF3,0xFF
287.756913166666664,1222,0x17,0xFF
287.756940416666680,1222,0x02,0xFF
287.756978458333322,1222,0xFF,0xD4
287.757005958333309,1222,0xFF,0x03
287.757033374999992,1222,0xFF,0x00
287.857838458333333,1223,0xF3,0xFF
288.224213916666656,1224,0x17,0xFF
288.224241166666673,1224,0x02,0xFF
288.224279208333314,1224,0xFF,0xAF
288.224306791666663,1224,0xFF,0x03
288.224334208333346,1224,0xFF,0x00
288.325126624999996,1225,0xF3,0xFF
288.690533749999986,1226,0x17,0xFF
288.690561041666683,1226,0x02,0xFF
288.690599125000006,1226,0xFF,0x23
288.690626624999993,1226,0xFF,0x05
288.690654083333357,1226,0xFF,0x00
288.791482916666666,1227,0xF3,0xFF
289.158005000000003,1228,0x17,0xFF
289.158032291666643,1228,0x02,0xFF
289.158070416666646,1228,0xFF,0xBA
289.158097958333315,1228,0xFF,0x03
289.158125416666678,1228,0xFF,0x00
289.258979458333329,1229,0xF3,0xFF
289.624474249999992,1230,0x17,0xFF
289.624501541666689,1230,0x02,0xFF
289.624539666666692,1230,0xFF,0xF3
289.624567249999984,1230,0xFF,0x02
289.624594666666667,1230,0xFF,0x00
289.725446666666642,1231,0xF3,0xFF
290.091040500000020,1232,0x17,0xFF
290.091067833333341,1232,0x02,0xFF
290.091105916666663,1232,0xFF,0xFF
290.091133624999998,1232,0xFF,0x02
290.091161041666680,1232,0xFF,0x00
290.192022375000022,1233,0xF3,0xFF
290.557626249999998,1234,0x17,0xFF
290.557653541666639,1234,0x02,0xFF
290.557691666666642,1234,0xFF,0x80
290.557719083333325,1234,0xFF,0x03
290.557746541666688,1234,0xFF,0x00
290.658628291666673,1235,0xF3,0xFF
291.024272333333329,1236,0x17,0xFF
291.024299625000026,1236,0x02,0xFF
291.024337666666668,1236,0xFF,0x44
291.024365124999974,1236,0xFF,0x03
291.024392541666657,1236,0xFF,0x00
291.125262374999977,1237,0xF3,0xFF
291.490695625000001,1238,0x17,0xFF
291.490722916666641,1238,0x02,0xFF
291.490760958333340,1238,0xFF,0x5B
291.490788541666689,1238,0xFF,0x03
291.490815958333314,1238,0xFF,0x00
291.591646166666692,1239,0xF3,0xFF
291.957938958333330,1240,0x17,0xFF
291.957966208333346,1240,0x02,0xFF
291.958004208333307,1240,0xFF,0xC1
291.958031666666670,1240,0xFF,0x02
291.958059041666672,1240,0xFF,0x00
292.058819333333361,1241,0xF3,0xFF
292.424110583333345,1242,0x17,0xFF
292.424137833333361,1242,0x02,0xFF
292.424175875000003,1242,0xFF,0xD4
292.424203333333310,1242,0xFF,0x02
292.424230749999992,1242,0xFF,0x00
292.525019291666695,1243,0xF3,0xFF
292.891393875000006,1244,0x17,0xFF
292.891421166666646,1244,0x02,0xFF
292.891459208333345,1244,0xFF,0x83
292.891486625000027,1244,0xFF,0x03
292.891514041666653,1244,0xFF,0x00
292.992284666666649,1245,0xF3,0xFF
293.357670666666650,1246,0x17,0xFF
293.357697916666666,1246,0x02,0xFF
293.357735999999989,1246,0xFF,0x34
293.357763499999976,1246,0xFF,0x03
293.357790916666659,1246,0xFF,0x00
293.458598041666676,1247,0xF3,0xFF
293.824073166666665,1248,0x17,0xFF
293.824100458333305,1248,0x02,0xFF
293.824138541666684,1248,0xFF,0x9D
293.824166083333353,1248,0xFF,0x03
293.824193541666659,1248,0xFF,0x00
293.925036374999991,1249,0xF3,0xFF
294.291446249999979,1250,0x17,0xFF
294.291473499999995,1250,0x02,0xFF
294.291511583333318,1250,0xFF,0xF1
294.291539124999986,1250,0xFF,0x04
294.291566499999988,1250,0xFF,0x00
294.392371541666648,1251,0xF3,0xFF
294.757801041666653,1252,0x17,0xFF
294.757828291666669,1252,0x02,0xFF
294.757866374999992,1252,0xFF,0x7C
294.757893916666660,1252,0xFF,0x04
294.757921333333343,1252,0xFF,0x00
294.858739583333318,1253,0xF3,0xFF
295.224139166666646,1254,0x17,0xFF
295.224166458333343,1254,0x02,0xFF
295.224204499999985,1254,0xFF,0xFF
295.224232166666638,1254,0xFF,0xFF
295.224259833333349,1254,0xFF,0xFF
295.325063875000012,1255,0xF3,0xFF
295.691390541666692,1256,0x17,0xFF
295.691417791666652,1256,0x02,0xFF
295.691455833333350,1256,0xFF,0x76
295.691483375000018,1256,0xFF,0x04
295.691510791666644,1256,0xFF,0x00
295.792310250000014,1257,0xF3,0xFF
296.157666249999977,1258,0x17,0xFF
296.157693499999993,1258,0x02,0xFF
296.157731583333316,1258,0xFF,0xF7
296.157759208333346,1258,0xFF,0x03
296.157786625000028,1258,0xFF,0x00
296.258621166666671,1259,0xF3,0xFF
296.625036125000008,1260,0x17,0xFF
296.625063375000025,1260,0x02,0xFF
296.625101458333347,1260,0xFF,0x8F
296.625129000000015,1260,0xFF,0x03
296.625156416666641,1260,0xFF,0x00
296.725975708333351,1261,0xF3,0xFF
297.091417541666658,1262,0x17,0xFF
297.091444791666675,1262,0x02,0xFF
297.091482833333316,1262,0xFF,0xA3
297.091510333333360,1262,0xFF,0x04
297.091537749999986,1262,0xFF,0x00
297.192359375000024,1263,0xF3,0xFF
297.557776708333336,1264,0x17,0xFF
297.557803999999976,1264,0x02,0xFF
297.557842041666675,1264,0xFF,0x52
297.557869541666662,1264,0xFF,0x05
297.557896958333345,1264,0xFF,0x00
297.658695708333312,1265,0xF3,0xFF
298.024961291666671,1266,0x17,0xFF
298.024988583333311,1266,0x02,0xFF
298.025026666666690,1266,0xFF,0xA9
298.025054166666678,1266,0xFF,0x02
298.025081583333360,1266,0xFF,0x00
298.125908333333314,1267,0xF3,0xFF
298.491292999999985,1268,0x17,0xFF
298.491320291666682,1268,0x02,0xFF
298.491358375000004,1268,0xFF,0x6A
298.491385916666673,1268,0xFF,0x02
298.491413333333355,1268,0xFF,0x00
298.592236458333332,1269,0xF3,0xFF
298.958584250000001,1270,0x17,0xFF
298.958611541666642,1270,0x02,0xFF
298.958649625000021,1270,0xFF,0xBA
298.958677208333313,1270,0xFF,0x02
298.958704583333315,1270,0xFF,0x00
299.059514333333311,1271,0xF3,0xFF
299.424910249999982,1272,0x17,0xFF
299.424937541666679,1272,0x02,0xFF
299.424975625000002,1272,0xFF,0x50
299.425003083333308,1272,0xFF,0x03
299.425030541666672,1272,0xFF,0x00
299.525868333333335,1273,0xF3,0xFF
299.891177000000027,1274,0x17,0xFF
299.891204291666668,1274,0x02,0xFF
299.891242374999990,1274,0xFF,0x2D
299.891269916666658,1274,0xFF,0x03
299.891297375000022,1274,0xFF,0x00
299.992140749999976,1275,0xF3,0xFF
